!CSV A.01.01
!Keysight Technologies,N5247B,MY58422921,A.14.80.08
!Date: Wednesday, April 12, 2023 05:37:24
!Source: Standard

BEGIN CH1_DATA
Freq(Hz),S11(DB),S11(DEG),S12(DB),S12(DEG),S21(DB),S21(DEG),S22(DB),S22(DEG)
40000000000,-4.5539374,67.536552,-77.761093,70.727966,-15.726078,102.05601,-12.059772,-109.95718
40060000000,-4.5048985,63.184059,-56.962906,43.494381,-15.538341,73.916107,-8.2965279,171.95882
40120000000,-4.5912771,58.454281,-57.309795,-31.883976,-15.969814,45.828785,-5.0847626,127.66431
40180000000,-4.5333204,53.777382,-59.534817,-55.20668,-16.833389,21.917261,-3.7417114,96.684387
40240000000,-4.6134915,49.544044,-57.066223,-46.785385,-17.410921,1.3412791,-3.5396309,72.367744
40300000000,-4.6001558,44.545933,-57.622082,-148.35356,-17.642187,-17.225044,-3.9134104,49.876568
40360000000,-4.5989122,40.402336,-57.558739,-67.906815,-17.451073,-35.792133,-4.8175592,26.792025
40420000000,-4.6863055,35.652283,-61.129372,-103.5567,-16.74367,-55.790749,-6.4150329,-2.3478246
40480000000,-4.6510172,31.100044,-54.576931,-88.149292,-15.841004,-80.042053,-8.7270765,-45.03952
40540000000,-4.7560878,26.988096,-52.569157,-161.09767,-15.119794,-107.49716,-10.225369,-112.46854
40600000000,-4.7788086,21.973499,-58.266201,147.76114,-15.086007,-136.85208,-7.9465013,-178.80379
40660000000,-4.7792306,17.324137,-52.89267,104.49632,-15.606429,-164.2207,-5.7986927,136.80496
40720000000,-4.8675175,12.415849,-52.646408,71.693085,-16.241985,171.00894,-4.6770167,104.38783
40780000000,-4.8367224,7.6993923,-52.565159,99.916,-16.703484,149.60384,-4.348568,78.386681
40840000000,-4.8680048,3.2396891,-55.771477,37.823189,-16.848921,129.12744,-4.466917,54.172653
40900000000,-4.903327,-1.6534221,-52.31749,32.525494,-16.658695,108.16875,-4.9733281,29.32069
40960000000,-4.8863702,-6.0054522,-57.315105,-10.868213,-16.153215,86.363846,-5.9490371,-0.87350672
41020000000,-4.9476023,-10.654572,-54.768681,-32.1917,-15.588027,61.923405,-7.2622237,-40.337444
41080000000,-4.9458404,-15.608144,-54.616184,-49.145412,-15.204157,33.799049,-8.5248871,-93.51712
41140000000,-5.0054822,-19.954815,-52.939423,-78.109856,-15.344086,5.8268962,-8.0581713,-153.24715
41200000000,-5.0286803,-24.700289,-52.674244,-81.300568,-15.938115,-22.247911,-6.722229,158.34232
41260000000,-5.0639391,-29.720823,-50.184742,-139.44446,-16.633152,-45.839935,-5.5981922,121.70338
41320000000,-5.084269,-34.704834,-57.499344,-176.25247,-17.235815,-67.623146,-4.9880843,92.48632
41380000000,-5.0918074,-39.983742,-58.887962,-173.72336,-17.524479,-87.717812,-4.7588692,65.941681
41440000000,-5.0800605,-44.668839,-58.465233,93.162025,-17.51189,-106.70047,-4.7629995,39.794056
41500000000,-5.1044068,-49.650261,-53.779636,-119.72174,-17.29793,-128.93375,-5.0992894,10.84544
41560000000,-5.1127801,-54.568741,-58.541767,-146.08078,-16.663971,-151.63974,-5.7396679,-22.709761
41620000000,-5.1563129,-59.501083,-53.978451,-173.13704,-16.129641,-176.89127,-6.8493772,-64.238808
41680000000,-5.1269188,-64.229645,-59.350414,112.561,-16.085361,155.85239,-7.8681512,-115.78625
41740000000,-5.1864481,-69.159851,-50.260338,144.59882,-16.363926,129.56358,-7.883626,-169.08908
41800000000,-5.2644863,-74.569695,-54.147923,87.444336,-16.814404,104.49235,-7.0200114,144.61606
41860000000,-5.2562146,-79.498108,-59.016415,71.618713,-17.29726,81.119926,-6.1156373,108.18874
41920000000,-5.3139744,-85.000587,-57.343796,81.856705,-17.697285,60.249023,-5.4117265,77.404762
41980000000,-5.3078847,-90.371689,-52.48243,35.690552,-17.699278,39.074245,-5.0113487,49.285404
42040000000,-5.3638167,-95.389656,-53.860867,50.344868,-17.54323,18.168633,-4.9260616,21.101225
42100000000,-5.3414035,-100.74962,-50.846397,-24.687529,-17.244926,-4.7957344,-5.2622099,-8.7189522
42160000000,-5.3451467,-105.11769,-53.821617,-40.776608,-16.891174,-29.05411,-6.228086,-43.53323
42220000000,-5.4263697,-110.58873,-56.508411,-92.229576,-16.626238,-55.127441,-7.7681255,-86.419495
42280000000,-5.393353,-115.43655,-46.979229,-81.653175,-16.727575,-81.975601,-9.1932755,-138.97743
42340000000,-5.4696469,-120.16987,-47.370365,-109.26385,-17.070839,-108.12776,-9.0149784,164.66176
42400000000,-5.4644971,-125.72224,-46.05901,-142.77711,-17.538691,-132.4261,-7.6191654,118.70798
42460000000,-5.5237527,-130.463,-47.088531,-175.51056,-18.024685,-154.5544,-6.2636018,82.06916
42520000000,-5.6342673,-136.65161,-45.372555,175.81319,-18.315483,-176.70076,-5.2994795,52.506699
42580000000,-5.486659,-141.74664,-47.17712,143.78015,-18.427031,161.97165,-4.9498124,24.594343
42640000000,-5.5438886,-146.16592,-48.555275,113.74056,-18.336306,140.05655,-5.0365338,-3.4307287
42700000000,-5.5579519,-151.35724,-46.422729,111.4268,-18.022154,117.183,-5.8578429,-33.946945
42760000000,-5.5838041,-156.14981,-47.405743,72.321373,-17.815653,92.741699,-7.5151954,-71.128708
42820000000,-5.5801892,-161.5242,-46.207661,43.282925,-17.681013,66.702499,-9.8379869,-120.82778
42880000000,-5.5160832,-165.93547,-45.90715,41.120495,-18.004644,41.403542,-10.358896,173.34857
42940000000,-5.6654296,-171.22675,-47.407265,25.239752,-18.253984,15.236059,-8.2250576,119.82781
43000000000,-5.5656309,-176.46967,-45.951897,-18.052544,-18.811182,-7.9696894,-6.1891141,81.329277
43060000000,-5.6327534,178.90714,-47.771709,-57.22905,-19.181032,-29.902401,-4.8713527,51.622761
43120000000,-5.6282353,173.3177,-47.621323,-89.287987,-19.557449,-51.786335,-4.3480849,25.267025
43180000000,-5.60744,167.80763,-49.311546,-76.167442,-19.479866,-72.422127,-4.3419013,-0.44027296
43240000000,-5.6192193,162.86163,-45.422997,-99.605217,-19.304844,-95.302429,-5.093112,-28.191778
43300000000,-5.5989704,158.37166,-47.394577,-138.29492,-19.065966,-118.89708,-6.6381936,-62.461117
43360000000,-5.6744928,153.14018,-47.220413,-164.42256,-18.816832,-143.69037,-8.9158821,-108.36156
43420000000,-5.6124425,148.24702,-46.689175,158.9247,-18.889389,-170.77521,-9.8915586,-173.75558
43480000000,-5.658277,143.69302,-45.245872,114.79932,-19.286007,163.57939,-7.6884851,128.52249
43540000000,-5.6940331,138.39146,-46.016891,103.13599,-19.987835,138.44337,-5.4965134,88.301064
43600000000,-5.6498127,134.20213,-49.253456,100.69314,-20.609015,116.66647,-4.1105094,58.722069
43660000000,-5.8027067,128.94148,-49.357681,60.480873,-21.037851,94.623856,-3.5398972,33.732655
43720000000,-5.6865406,123.38987,-47.547493,22.16855,-21.28137,74.295975,-3.5050271,10.066884
43780000000,-5.7253494,119.15009,-47.224506,14.488113,-21.253988,53.37542,-4.0443745,-15.002105
43840000000,-5.7021232,113.90776,-46.46109,-4.7669802,-20.998177,30.949883,-5.2695746,-44.717323
43900000000,-5.6461506,109.74139,-48.569611,-38.483711,-20.754366,7.2432442,-7.3081779,-83.997215
43960000000,-5.7392211,104.75572,-48.109493,-49.9268,-20.640905,-19.074244,-9.2720766,-143.61072
44020000000,-5.6647015,100.3243,-47.477715,-90.909966,-21.039087,-46.913784,-7.8532205,151.94244
44080000000,-5.8033786,95.939484,-46.831837,-106.82722,-21.781742,-71.954758,-5.5043864,106.74628
44140000000,-5.797761,90.13662,-52.046722,-117.63451,-22.444813,-95.120811,-3.9579883,74.987411
44200000000,-5.6530404,86.466835,-46.663967,-147.81482,-23.064198,-116.08652,-3.2654541,49.362968
44260000000,-5.860147,81.641991,-49.214138,175.90111,-23.638351,-134.69688,-3.0668461,26.316151
44320000000,-5.7355847,76.022079,-51.715446,163.29039,-23.720362,-154.97475,-3.403939,3.8107569
44380000000,-5.7420363,72.128288,-50.22176,147.54839,-23.528086,-174.8371,-4.3961782,-22.173159
44440000000,-5.7677546,66.817772,-48.850712,108.40052,-23.158142,162.87552,-6.2187738,-55.556316
44500000000,-5.6786394,62.470699,-49.374126,98.296822,-22.937805,137.7522,-8.9321718,-106.74135
44560000000,-5.7229815,57.944901,-48.761967,71.682343,-23.020931,111.58938,-9.2765846,-177.36301
44620000000,-5.6969461,52.861858,-51.737774,40.331245,-23.776274,85.810326,-6.7233882,126.92294
44680000000,-5.6823339,48.808235,-52.166939,12.604159,-24.727011,60.814159,-4.7075253,90.679871
44740000000,-5.7494965,43.814789,-53.166412,-23.732239,-25.359255,41.116623,-3.6935699,64.168518
44800000000,-5.6696925,38.855347,-53.486439,-41.541843,-25.955555,23.780094,-3.3426476,41.308834
44860000000,-5.6955457,34.414776,-50.222301,-37.76474,-26.14353,3.49526,-3.5797572,19.699446
44920000000,-5.692791,28.992689,-51.11488,-54.980774,-25.867126,-15.656708,-4.4459882,-4.6787629
44980000000,-5.6909885,24.012203,-49.013401,-80.904396,-25.264029,-37.368134,-6.2098579,-35.376801
45040000000,-5.6755638,19.120043,-50.547127,-135.46959,-24.836681,-62.484463,-9.5883503,-82.52298
45100000000,-5.6671624,14.214965,-51.647438,-143.89114,-25.123981,-89.951164,-11.212689,-162.48842
45160000000,-5.6916423,9.9569187,-57.118568,-174.87045,-25.567163,-117.58619,-7.927072,132.98422
45220000000,-5.7342505,4.721046,-50.003441,145.35915,-26.579454,-141.58922,-5.4056935,95.434761
45280000000,-5.6933517,-0.15228784,-54.211361,172.77661,-27.435486,-162.19675,-4.2438407,68.323433
45340000000,-5.7515488,-4.9572706,-51.412254,112.41444,-27.933723,178.63432,-3.8084919,45.193275
45400000000,-5.7536492,-9.7717409,-52.236393,98.857925,-27.968435,159.45836,-4.040719,23.331989
45460000000,-5.7346563,-14.876117,-57.103428,77.552505,-27.931646,139.85507,-4.9413538,-2.1389306
45520000000,-5.715023,-19.80949,-56.285351,45.567654,-27.569387,117.87381,-6.7879663,-34.538216
45580000000,-5.704145,-24.120708,-54.143974,21.432585,-27.229151,90.367165,-10.236377,-87.646027
45640000000,-5.8130879,-29.915648,-52.156151,12.971241,-27.442255,61.597282,-10.612761,-170.61122
45700000000,-5.7417388,-34.593174,-53.285244,-28.744329,-28.599531,34.675415,-7.2319913,129.59259
45760000000,-5.8326693,-39.363956,-55.49622,-57.737617,-29.46582,9.4686012,-4.8976202,93.568039
45820000000,-5.7964373,-44.517056,-57.991341,-39.25148,-31.162058,-11.582344,-3.9281843,67.34967
45880000000,-5.8364682,-49.059952,-57.749783,-118.16286,-31.57638,-31.152634,-3.6146848,43.979904
45940000000,-5.9105706,-54.400295,-55.464226,-153.27357,-31.850086,-50.156807,-3.7686465,21.464617
46000000000,-5.8497524,-58.845455,-54.909489,-132.85551,-32.096302,-68.105339,-4.5921545,-4.8768554
46060000000,-5.9908319,-64.222343,-51.484798,162.8266,-31.997166,-89.056633,-6.0385756,-40.05212
46120000000,-5.8772149,-69.892456,-51.240314,152.25803,-32.144421,-119.31956,-8.2485027,-91.655663
46180000000,-5.9727054,-74.298035,-55.660831,140.14296,-33.102242,-146.15523,-8.3220997,-162.52882
46240000000,-6.0091257,-80.429352,-51.417679,89.455276,-34.543976,-171.8058,-6.124289,141.6346
46300000000,-5.9032617,-84.924118,-55.657631,45.495964,-37.175411,161.9373,-4.3324299,103.30343
46360000000,-6.0610871,-89.617371,-63.820419,72.432686,-39.577686,147.64844,-3.4142106,75.660881
46420000000,-6.0016079,-94.625793,-59.382374,3.9692419,-41.322983,129.40205,-3.1039066,51.624348
46480000000,-6.1244278,-99.204659,-53.847126,64.608376,-42.733513,123.00396,-3.1438982,28.838701
46540000000,-6.1404872,-104.88235,-52.044273,38.34911,-43.347454,106.68579,-3.6359897,4.1822448
46600000000,-6.0720396,-109.49352,-62.432194,-127.6919,-47.157024,103.90111,-4.5738349,-27.163204
46660000000,-6.1808157,-114.83237,-54.555241,-25.480534,-46.006977,87.840324,-5.9911528,-68.358826
46720000000,-6.2160258,-119.87232,-52.501965,-69.491173,-47.3041,116.01161,-7.2119846,-126.36947
46780000000,-6.2632051,-125.13916,-50.803005,-105.1568,-45.27079,100.36684,-6.246902,173.56664
46840000000,-6.3032808,-131.27251,-52.533222,-166.95702,-43.824375,99.778694,-4.702311,127.84781
46900000000,-6.2895555,-135.85294,-53.622581,-173.7047,-43.816818,78.419083,-3.5976646,94.612823
46960000000,-6.3716493,-141.14926,-50.31776,179.04924,-40.640827,65.75161,-3.0519764,68.113533
47020000000,-6.3351207,-145.98959,-52.73959,164.12477,-40.519672,53.351101,-2.930095,44.192341
47080000000,-6.4649692,-150.92589,-54.549145,117.52009,-37.780647,36.027645,-3.122257,20.021976
47140000000,-6.4834595,-156.05089,-51.09433,83.178848,-35.877441,21.719296,-3.7307105,-6.9275188
47200000000,-6.595643,-161.20863,-56.092186,36.479813,-34.507545,-0.81156576,-4.8695602,-40.762096
47260000000,-6.6800966,-166.76469,-50.270718,23.351713,-33.467335,-22.878485,-6.4815969,-86.512016
47320000000,-6.7359295,-172.18974,-58.677963,-33.684753,-31.676676,-48.06282,-7.3192167,-145.99165
47380000000,-6.7880659,-177.62994,-59.633499,-54.266388,-31.386156,-73.458076,-6.2593298,157.02251
47440000000,-6.7998958,177.1347,-58.231907,-65.468361,-31.098703,-96.476601,-4.8107104,115.13981
47500000000,-6.872704,171.31497,-54.958431,-81.368492,-30.903904,-115.26873,-3.8599069,83.303444
47560000000,-6.8052378,166.2346,-56.687199,-47.81073,-30.173597,-132.8338,-3.4060771,56.652344
47620000000,-6.9195995,161.95586,-56.210796,-75.586502,-29.448595,-150.04831,-3.3940148,31.831049
47680000000,-7.0187116,156.41608,-56.585571,-102.3306,-28.344824,-168.63872,-3.7395127,6.3800211
47740000000,-6.9923534,151.45152,-55.87487,138.72917,-26.555035,171.95506,-4.7819653,-23.435177
47800000000,-7.158464,146.71675,-50.661423,178.45677,-25.219282,146.93874,-6.5834985,-63.144321
47860000000,-7.2265663,140.76187,-53.307846,144.28094,-24.007505,121.09377,-8.7066908,-119.04004
47920000000,-7.3409834,135.48492,-51.675739,130.07918,-23.362228,93.877647,-8.4760551,173.66466
47980000000,-7.4349899,129.8855,-61.092525,112.26189,-22.976295,68.586838,-6.5274601,122.91562
48040000000,-7.3749981,124.30268,-53.078896,55.795078,-22.868322,44.988804,-5.0175261,86.451515
48100000000,-7.4201651,119.31771,-54.843277,35.384331,-22.562023,23.476343,-4.1799569,58.169765
48160000000,-7.4250646,113.87567,-71.123589,64.65892,-22.026476,4.387948,-4.0245581,32.365856
48220000000,-7.3695269,109.61128,-53.65583,6.0920873,-21.140379,-17.921247,-4.2898898,5.7182875
48280000000,-7.542717,104.79733,-56.461803,16.347546,-20.105986,-39.873901,-5.3762145,-24.522129
48340000000,-7.5859966,99.325684,-54.469864,-59.070866,-19.0872,-65.567383,-7.3600607,-64.970009
48400000000,-7.6056881,94.533195,-51.176624,-46.612125,-18.182539,-93.15979,-9.6930389,-124.6805
48460000000,-7.7243371,88.883522,-51.386669,-80.543617,-17.93536,-121.26917,-8.982399,164.14212
48520000000,-7.7433028,83.24202,-58.407742,-94.541359,-18.097475,-148.34602,-6.4878817,113.52685
48580000000,-7.7303729,77.812607,-51.81699,-141.90297,-18.214653,-171.72993,-4.7534046,78.197922
48640000000,-7.729701,72.12085,-53.377281,-152.71291,-18.365704,166.91916,-3.8592052,50.696587
48700000000,-7.6615052,66.866653,-53.276249,177.12041,-18.142275,146.79549,-3.6148419,25.624163
48760000000,-7.6617603,61.423092,-53.591999,153.22713,-17.634481,126.46976,-3.8814809,-0.24317761
48820000000,-7.6085529,56.865826,-51.808865,134.87178,-16.788948,104.72226,-4.6895504,-29.91254
48880000000,-7.7165923,51.961308,-51.230164,143.12788,-15.838594,80.542473,-6.2689128,-69.068108
48940000000,-7.7551389,46.464478,-53.280411,98.694481,-15.207847,53.658279,-8.0897894,-123.95644
49000000000,-7.7752719,41.179398,-48.449913,54.299477,-15.025177,25.538698,-7.6454749,168.99457
49060000000,-7.8316479,35.043835,-52.717762,18.201832,-15.251221,-1.0071697,-5.535326,118.83466
49120000000,-7.7823677,29.558092,-51.793522,-9.4462605,-15.768352,-24.394554,-4.0358825,83.048141
49180000000,-7.7658339,23.984652,-55.30299,-25.466473,-16.086931,-44.778706,-3.1534705,55.518681
49240000000,-7.7138572,18.440048,-51.337872,-20.931021,-15.996284,-63.732735,-2.852664,31.607073
49300000000,-7.7001109,12.798589,-49.921875,-57.25013,-15.700109,-83.084732,-2.9249735,7.6233234
49360000000,-7.5670896,7.2325659,-53.633942,-70.262817,-15.011667,-102.15396,-3.4124582,-17.523678
49420000000,-7.5251279,3.3662214,-50.902908,-104.23096,-14.16831,-123.60733,-4.5694175,-49.588734
49480000000,-7.6760721,-2.4079149,-49.718403,-110.7943,-13.195725,-148.59067,-6.1735702,-93.141525
49540000000,-7.5656285,-7.6668892,-49.659168,-149.27299,-12.6258,-175.88211,-7.3457437,-154.25951
49600000000,-7.7160745,-12.777998,-51.450386,171.31136,-12.696562,156.64989,-5.8953052,146.18993
49660000000,-7.6336474,-19.308825,-49.246552,143.7308,-13.024981,132.20592,-4.2503409,104.18681
49720000000,-7.6152949,-24.502142,-52.68182,134.015,-13.414309,110.59011,-3.1516461,73.016151
49780000000,-7.6029453,-30.614487,-50.787487,99.762039,-13.584646,91.580254,-2.6365297,48.493855
49840000000,-7.3919506,-35.849998,-52.155487,68.24102,-13.386303,73.207855,-2.5314686,25.638914
49900000000,-7.4192934,-40.579811,-49.461472,54.353798,-12.829943,55.102249,-2.7690179,3.0588784
49960000000,-7.3577685,-46.185154,-52.333569,61.515965,-11.949814,35.188828,-3.5940902,-23.109846
50020000000,-7.2882633,-50.544102,-48.932304,24.180601,-10.876836,12.985251,-4.9498277,-57.460693
50080000000,-7.3900661,-55.978188,-53.17477,11.851879,-9.957921,-12.633241,-6.9322891,-105.51316
50140000000,-7.2924638,-61.514248,-49.361423,-40.144974,-9.4464817,-40.774288,-7.5580077,-171.40935
50200000000,-7.2602749,-66.367302,-48.230045,-66.38723,-9.5415335,-67.553802,-5.7871747,132.84981
50260000000,-7.2847819,-72.290688,-47.355301,-89.953995,-9.9047861,-91.415871,-4.1496634,94.032791
50320000000,-7.21102,-77.816216,-47.356796,-114.33894,-10.139508,-111.98472,-3.2359715,66.296333
50380000000,-7.1251497,-83.334778,-51.042656,-131.39555,-10.058833,-130.99532,-2.9599957,42.468708
50440000000,-7.0782762,-88.449654,-51.800232,-165.69957,-9.6255484,-149.45253,-3.0910034,19.789341
50500000000,-6.9601665,-93.611916,-49.87122,-166.02188,-8.8206253,-168.71631,-3.6525445,-3.9029768
50560000000,-6.9101195,-98.252533,-50.545521,158.75026,-7.7505932,169.48766,-5.0576849,-33.583786
50620000000,-6.9468632,-103.41692,-47.697205,141.14061,-6.6792712,144.2989,-7.50352,-75.542137
50680000000,-6.7993221,-107.99689,-47.43763,107.56538,-5.9702291,116.76323,-9.9403811,-142.3645
50740000000,-6.8107057,-112.76702,-49.720726,84.985558,-5.8025885,88.622414,-8.2328081,147.81444
50800000000,-6.7817135,-118.64981,-45.220711,56.639729,-6.0913239,63.260197,-5.8419065,102.73004
50860000000,-6.6868963,-123.50837,-50.852867,44.840279,-6.3277602,40.912952,-4.434988,71.661667
50920000000,-6.7380433,-129.01082,-51.568195,14.269712,-6.3341627,21.03619,-3.9277575,46.894341
50980000000,-6.6281128,-134.57265,-50.178082,-16.969524,-5.9475684,1.5159254,-4.0487266,23.857306
51040000000,-6.583519,-139.39726,-51.074017,-48.936192,-5.120296,-18.888851,-4.7838125,-0.80688703
51100000000,-6.4300089,-144.79965,-50.013641,-78.200302,-4.1550722,-42.157921,-6.6806068,-32.37656
51160000000,-6.3539567,-148.44205,-50.142963,-110.24532,-3.2649884,-68.374275,-10.221133,-80.452095
51220000000,-6.5279489,-153.77679,-51.89883,-110.04742,-2.7907541,-96.812332,-12.215146,-164.63733
51280000000,-6.3093266,-159.37796,-54.069984,-145.90384,-2.901958,-124.53996,-8.3972616,128.37419
51340000000,-6.308877,-163.20947,-48.930992,162.86278,-3.2720957,-149.44705,-5.7357044,90.376335
51400000000,-6.3569498,-168.54678,-51.213188,154.88446,-3.6182063,-170.93044,-4.4986095,62.744946
51460000000,-6.2196264,-173.41664,-52.750103,75.571922,-3.5824654,169.27902,-4.0320039,39.227406
51520000000,-6.3427591,-178.77638,-52.666725,108.93413,-3.1887362,149.83104,-4.2585826,15.76644
51580000000,-6.2322521,175.55666,-56.04562,133.51137,-2.5053835,128.9373,-5.0550666,-10.86514
51640000000,-6.1825485,170.94327,-54.026875,104.43245,-1.5420874,105.53151,-6.8611469,-45.592419
51700000000,-6.1637125,165.75755,-57.493668,46.45882,-0.77088642,78.741562,-9.6021652,-100.69182
51760000000,-6.0504508,161.00117,-50.685764,3.9726887,-0.45366368,50.045658,-9.4353209,-175.72997
51820000000,-6.1271863,156.07841,-58.248848,-74.407379,-0.76442254,22.905092,-6.5971255,128.81827
51880000000,-5.9891801,151.33035,-54.228138,-50.961544,-1.2461218,-0.70459425,-4.6731777,93.321671
51940000000,-6.1011872,147.30223,-53.050671,-9.5381794,-1.6469437,-21.780294,-3.7451537,66.051949
52000000000,-6.2087593,141.71628,-63.439533,-124.3122,-1.7085781,-40.421944,-3.3230782,42.966274
