!CSV A.01.01
!Keysight Technologies,N5247B,MY58422921,A.14.80.08
!Date: Wednesday, April 12, 2023 05:38:53
!Source: Standard

BEGIN CH1_DATA
Freq(Hz),S11(DB),S11(DEG),S12(DB),S12(DEG),S21(DB),S21(DEG),S22(DB),S22(DEG)
40000000000,-4.8053865,69.661041,-47.003895,-177.6093,-15.601964,105.42931,-12.696572,-105.57423
40060000000,-4.4244466,67.158424,-40.765495,111.03581,-15.442409,78.933342,-8.1767874,175.3598
40120000000,-4.8266597,61.040699,-43.140778,-1.1151105,-15.808456,50.200531,-5.2617431,129.5316
40180000000,-4.3006711,55.98093,-56.619564,-130.59529,-17.012289,24.505392,-3.5046,99.033157
40240000000,-4.5307813,51.892696,-44.779644,-11.04108,-17.259907,5.3744106,-3.5527284,75.707771
40300000000,-4.3057246,47.665188,-46.834942,-87.898743,-17.577738,-12.989165,-3.7913113,51.366016
40360000000,-4.5641723,43.847549,-51.911659,-177.80307,-17.148903,-32.414814,-4.7554154,30.849991
40420000000,-4.5280209,37.938534,-45.372204,13.005169,-16.61989,-52.27055,-6.4963546,0.32582608
40480000000,-4.78581,37.975006,-40.913948,164.71176,-15.850252,-76.384323,-8.5057049,-38.965599
40540000000,-4.7944245,30.312263,-49.757519,-33.626682,-15.249503,-102.53394,-10.807934,-109.66903
40600000000,-4.4430261,26.081568,-45.762852,96.780815,-15.248257,-133.92822,-7.8137012,-174.06985
40660000000,-4.945725,20.580837,-43.13179,176.96587,-15.358187,-159.44336,-6.0349183,138.83652
40720000000,-4.7452884,13.966246,-48.950031,-124.26639,-16.158901,174.31833,-4.380589,106.52747
40780000000,-4.7631807,10.823031,-43.506844,82.154137,-16.562441,152.88173,-4.3369422,81.794495
40840000000,-4.6705647,4.7244349,-48.854565,28.234041,-17.123842,134.12794,-4.3131318,56.057209
40900000000,-4.7507324,3.2295985,-43.838139,24.914618,-16.805824,113.49091,-4.816258,33.833553
40960000000,-4.8175316,-3.3703043,-52.149052,-116.13477,-16.08378,91.041962,-6.018312,1.2528056
41020000000,-4.4191442,-6.0453539,-37.711704,-173.59583,-15.411008,64.195671,-7.0251765,-36.002556
41080000000,-4.8861561,-12.548849,-44.583805,-47.992062,-15.289132,38.784809,-9.0664177,-90.492058
41140000000,-4.6524143,-18.439924,-42.871853,-120.96841,-15.181831,8.4704065,-7.7751269,-150.35056
41200000000,-5.2006564,-19.088398,-40.617153,-107.80375,-15.823001,-18.086376,-6.8061175,161.15959
41260000000,-4.9945788,-27.624004,-50.00312,162.58405,-16.55372,-46.079727,-5.335361,123.54471
41320000000,-4.7226772,-30.800892,-53.273716,-160.57486,-17.239769,-63.390816,-4.8792763,96.525642
41380000000,-5.2800632,-36.44067,-41.410091,142.1609,-17.625692,-83.808075,-4.5346541,67.962967
41440000000,-4.6394076,-41.446854,-51.658875,176.28059,-17.539169,-103.94713,-4.5164585,44.912922
41500000000,-5.1189704,-45.366589,-44.44965,-70.036957,-17.022785,-122.83672,-5.237473,14.140551
41560000000,-4.9870696,-52.094273,-55.552448,1.1635451,-16.734617,-150.61328,-5.6149135,-19.438862
41620000000,-4.9891458,-54.586357,-43.458042,136.43246,-16.465963,-174.95096,-7.0938191,-59.594349
41680000000,-5.0652404,-60.628483,-41.763531,113.25613,-15.971728,159.5798,-8.0089579,-114.76331
41740000000,-4.6052046,-63.410145,-43.974834,49.14772,-16.721527,135.36647,-7.9324341,-165.65761
41800000000,-5.2834334,-68.470345,-44.328861,61.899124,-16.700825,110.1048,-6.8364019,145.40825
41860000000,-5.1030126,-77.397285,-37.751862,-11.240375,-17.033491,87.80648,-6.0392375,112.73531
41920000000,-5.234179,-80.575119,-48.72953,-34.089687,-17.293253,62.631321,-5.4572687,80.727989
41980000000,-5.4095931,-89.060005,-50.220089,0.27572456,-17.872223,39.96928,-4.8517222,53.631123
42040000000,-5.035203,-92.861061,-47.403492,-103.92182,-17.729753,21.001415,-5.2631207,24.400152
42100000000,-5.3154292,-98.489677,-43.383518,-171.83981,-16.951767,-2.8447199,-5.3004727,-5.5201716
42160000000,-5.060976,-100.89133,-44.478851,34.986012,-17.140966,-23.683319,-6.4353271,-39.840382
42220000000,-5.1209269,-104.84628,-42.382809,-12.976966,-16.259182,-49.0695,-7.9735427,-85.827454
42280000000,-5.0473843,-110.07452,-54.19212,-59.359051,-16.735868,-78.291969,-9.0837631,-136.40907
42340000000,-5.2340226,-115.40482,-45.870998,76.158646,-17.375872,-102.38538,-8.7541676,166.44608
42400000000,-5.5943546,-120.40311,-48.45248,-124.2166,-17.719671,-126.8792,-7.5684543,123.2694
42460000000,-5.424077,-125.45393,-46.773109,-146.66542,-18.066517,-150.65378,-6.3573451,86.358063
42520000000,-5.6850224,-133.37172,-50.890972,73.8564,-18.567314,-170.94307,-5.1872535,57.149551
42580000000,-5.2174354,-138.97321,-41.082722,120.87155,-18.069717,166.70248,-5.1919785,27.896379
42640000000,-5.4795132,-142.08075,-38.272472,-142.31766,-18.209215,145.18021,-5.0138822,-0.1629179
42700000000,-5.2329803,-148.38503,-46.580292,144.76546,-17.754139,122.00784,-6.0328264,-31.440865
42760000000,-5.4914455,-152.19716,-41.674206,115.12464,-17.263769,96.773376,-7.4968109,-70.078705
42820000000,-5.2947922,-158.3643,-41.644836,149.82291,-17.051092,69.887924,-9.8419867,-117.67698
42880000000,-5.4182401,-158.78879,-42.354294,28.601393,-17.814304,45.965435,-10.029852,175.30214
42940000000,-5.7949986,-166.87656,-38.72702,6.0545216,-17.625164,20.831652,-8.5050564,124.79216
43000000000,-5.0956054,-169.55658,-43.517132,-97.636475,-18.377708,-6.0535583,-6.1773629,82.84967
43060000000,-5.8286166,-175.23268,-49.919479,49.048225,-19.102146,-28.031939,-4.7820225,57.061222
43120000000,-5.5447946,175.75232,-41.949001,-19.16679,-19.096828,-50.509632,-4.5397243,28.138918
43180000000,-5.7107162,172.66174,-44.4818,-74.115791,-19.000673,-67.140266,-4.309351,1.6053826
43240000000,-5.5423851,164.00957,-56.498852,-92.841667,-19.086931,-89.41468,-5.2985215,-24.529354
43300000000,-5.226512,163.72415,-51.329861,113.65186,-18.89677,-114.33286,-6.5129957,-62.164604
43360000000,-5.8453469,155.0096,-43.711834,-176.19839,-18.651339,-143.58517,-8.8992805,-103.7262
43420000000,-5.0871558,152.314,-40.339512,119.17103,-19.357023,-169.10072,-9.6794987,-173.40543
43480000000,-5.7093601,153.84172,-39.998478,159.57329,-18.741709,170.50058,-7.9577575,135.10742
43540000000,-5.4768772,141.00333,-50.397114,64.079018,-19.996737,141.26366,-5.7467542,89.476982
43600000000,-5.3018699,142.23444,-45.315983,111.07365,-20.662752,120.29161,-3.9518559,62.480961
43660000000,-6.2798619,131.77631,-36.873646,70.859787,-20.848639,100.65592,-3.7671337,36.454296
43720000000,-5.4440937,126.27093,-42.309429,77.080055,-20.545288,74.986473,-3.3719723,11.37402
43780000000,-6.2516975,123.44482,-39.86451,-9.6297331,-20.881681,56.986702,-4.1235852,-10.712062
43840000000,-5.3493257,113.70673,-47.910351,-83.114037,-20.573051,36.347557,-5.2407899,-43.707531
43900000000,-5.5932631,114.97971,-49.144482,-113.72749,-20.74551,8.9205074,-6.937655,-78.371246
43960000000,-5.6585765,103.87721,-41.381264,-129.35713,-20.576712,-18.561031,-9.6555681,-142.16327
44020000000,-5.1406679,107.04628,-48.181927,-108.28191,-20.436121,-42.780052,-7.6267118,157.18002
44080000000,-6.174963,102.94897,-42.46204,-72.175529,-21.622793,-71.003654,-5.8354645,109.25029
44140000000,-5.3665662,91.809593,-43.925201,-119.28977,-22.401312,-91.785728,-3.8198924,77.195427
44200000000,-5.6787815,94.272995,-47.358124,-90.64666,-22.83259,-107.7841,-3.3990884,52.531681
44260000000,-6.0657082,83.278809,-48.642082,-150.60779,-23.000118,-134.2339,-3.0257535,27.627787
44320000000,-5.5258861,80.929604,-48.259628,125.43732,-23.621695,-151.63927,-3.3508291,7.1501646
44380000000,-6.2948384,74.622177,-43.525967,-112.40691,-23.745649,-170.63686,-4.5310345,-20.128332
44440000000,-5.319994,67.34758,-51.999031,109.02043,-22.962618,167.5061,-6.0279703,-52.42625
44500000000,-5.7439995,66.318184,-45.403652,86.833443,-22.599998,140.72214,-9.350832,-101.99061
44560000000,-5.3916574,58.569584,-38.929367,78.177071,-22.954582,111.86275,-9.1390791,-174.40474
44620000000,-5.238049,57.690674,-45.473454,-26.372267,-23.443041,88.438454,-7.1106396,130.56009
44680000000,-5.6614571,51.9398,-48.633522,-70.660347,-25.162792,68.289551,-4.6626124,92.14489
44740000000,-5.3436198,48.675022,-48.760723,-19.098522,-24.292892,40.83942,-3.7241516,67.260666
44800000000,-5.9234066,45.199238,-47.839195,11.068281,-25.560339,28.351805,-3.3611171,42.829636
44860000000,-5.8340673,36.108986,-53.563576,52.279495,-25.716574,6.1662474,-3.4902661,22.903307
44920000000,-5.7755098,32.595158,-46.901608,-68.913773,-25.884005,-12.742796,-4.5607715,-2.3212514
44980000000,-5.7115517,24.639759,-45.289104,-11.496217,-24.991756,-33.159443,-6.0572138,-32.418503
45040000000,-5.515348,22.397062,-57.427269,-62.682716,-24.810642,-58.42197,-9.899868,-77.727715
45100000000,-5.5957932,16.067184,-44.022568,-138.86516,-24.831327,-83.929001,-11.165691,-160.26433
45160000000,-5.2640748,12.688806,-49.557083,94.164253,-25.919659,-114.42318,-8.1851501,135.71101
45220000000,-5.591959,10.231354,-49.469723,117.03503,-27.167723,-141.19252,-5.3292809,97.430328
45280000000,-5.3862162,3.5198014,-49.293983,-153.7298,-28.134222,-157.92477,-4.2340946,71.57428
45340000000,-5.5767179,-0.34373158,-41.595604,82.338074,-28.487253,175.15128,-3.7971849,46.796837
45400000000,-5.8557916,-6.4552364,-52.890095,10.816202,-28.724472,163.63799,-3.9522481,26.254551
45460000000,-5.8684468,-11.206509,-44.132507,6.8146129,-27.303043,138.47824,-5.045547,0.64416659
45520000000,-5.6899104,-18.024498,-58.13414,45.411133,-26.634712,123.72066,-6.5472178,-32.125633
45580000000,-5.5474319,-20.616205,-48.972664,-66.205971,-27.069437,95.479523,-10.51583,-82.631042
45640000000,-5.7802792,-29.219481,-47.949059,63.91209,-27.695461,67.502136,-10.31443,-167.51857
45700000000,-5.4320822,-32.888607,-50.885952,-102.97443,-28.957228,36.055435,-7.5997481,132.28232
45760000000,-5.623786,-35.845314,-48.847767,-23.680079,-29.913671,19.330795,-4.7405415,96.019981
45820000000,-5.3960814,-41.711853,-51.364708,-49.443962,-33.21101,-13.397032,-3.9819975,71.010414
45880000000,-5.5952063,-43.800396,-47.322044,121.97233,-29.719482,-29.813114,-3.6196656,45.88987
45940000000,-5.8711991,-50.809605,-41.645485,145.60396,-31.721195,-59.388992,-3.6332941,25.115677
46000000000,-5.6010494,-53.878757,-44.312618,161.11284,-31.937296,-62.063046,-4.6714692,-1.9857183
46060000000,-5.9497294,-60.229832,-57.743015,31.026691,-31.547716,-84.393181,-5.8805199,-37.622551
46120000000,-5.7929254,-68.575485,-48.234043,-30.153154,-30.724842,-115.63486,-8.4979916,-88.316231
46180000000,-6.1225538,-72.390373,-48.580669,118.02163,-31.984737,-139.25798,-8.0848083,-160.64651
46240000000,-5.8888383,-80.07737,-43.708931,40.101753,-33.926498,-174.55142,-6.4122319,145.2738
46300000000,-5.2908192,-79.759521,-44.016037,-26.497782,-34.274975,179.88019,-4.3105111,104.57463
46360000000,-6.1156211,-86.213249,-49.578346,-111.98141,-42.112591,133.91389,-3.4019647,78.860039
46420000000,-5.2682047,-91.742508,-47.04501,-21.755203,-42.766308,110.27924,-3.1475079,54.127495
46480000000,-6.0736609,-91.863106,-45.343533,-13.878207,-56.898582,-174.58037,-3.0137527,32.122944
46540000000,-6.0660329,-102.35477,-52.275494,16.029793,-42.715031,115.14593,-3.7705076,7.5578289
46600000000,-5.7165527,-103.61866,-46.970455,48.646202,-44.028843,144.78134,-4.6378112,-25.336098
46660000000,-6.5298133,-112.3598,-36.893169,-11.400716,-47.343082,103.44483,-5.9887795,-64.636276
46720000000,-5.9742064,-116.47113,-44.696552,-164.27834,-43.244278,171.42586,-7.2828093,-124.79099
46780000000,-6.5517025,-121.69083,-37.519356,-146.52556,-48.258442,109.13607,-6.3219266,176.18832
46840000000,-6.0221424,-130.6799,-45.180698,-124.87232,-43.219318,85.56086,-4.8257613,129.73593
46900000000,-6.0749707,-131.78398,-43.477882,-175.39565,-40.229576,96.769737,-3.6451294,98.08886
46960000000,-6.3782845,-138.78624,-44.598942,114.29639,-38.237232,83.64901,-3.1933272,71.037216
47020000000,-5.7142234,-137.62691,-45.356133,-88.930649,-40.969608,47.199368,-2.9093361,47.818325
47080000000,-6.5801163,-144.56155,-42.514183,99.419571,-37.34404,50.670876,-3.1942952,23.495438
47140000000,-5.7383852,-150.46986,-43.429493,175.33806,-35.73082,-5.500618,-3.6596661,-3.5637839
47200000000,-6.4388728,-152.55367,-55.828011,46.285015,-33.447338,0.2557078,-4.8922319,-37.359531
47260000000,-6.6356711,-163.4606,-53.716461,156.24815,-32.222591,-32.98637,-6.5739088,-83.877167
47320000000,-6.6321988,-169.145,-54.222809,-83.100006,-31.655893,-46.519127,-7.4061117,-143.49269
47380000000,-7.1880565,-176.12723,-49.888958,68.946846,-31.482595,-74.573921,-6.3360534,158.52046
47440000000,-6.659225,179.17064,-45.638027,29.258568,-30.616776,-100.46883,-4.8786759,118.45741
47500000000,-6.8422322,174.54321,-48.570908,-93.886795,-31.094555,-108.11687,-3.8980434,85.803055
47560000000,-6.6652451,171.13141,-42.219769,112.90472,-29.770321,-130.08675,-3.3244488,60.482651
47620000000,-6.9565392,166.87065,-42.200176,-132.69966,-28.568939,-148.39435,-3.4237511,34.998474
47680000000,-6.6507115,161.47134,-44.8242,-177.61392,-27.401495,-166.74844,-3.6170394,9.1799984
47740000000,-6.9119883,158.21672,-39.275562,130.28149,-26.810459,179.01541,-4.8783941,-18.835773
47800000000,-7.2290215,150.16837,-43.909245,-166.44923,-25.19632,155.80891,-6.6599874,-61.704987
47860000000,-7.2057543,145.64041,-53.134239,46.56675,-23.516727,126.93851,-8.756711,-115.64277
47920000000,-7.8878822,140.39455,-52.628746,-76.609337,-22.823605,100.84112,-8.4968977,174.10347
47980000000,-7.5602336,131.75749,-51.374031,93.223015,-23.089821,71.500801,-6.544951,126.21236
48040000000,-7.4165883,128.53629,-43.207741,41.885944,-22.688709,48.58704,-5.2295299,88.403641
48100000000,-7.2587605,120.63764,-51.571129,141.56699,-22.604612,26.599821,-4.2306252,61.911533
48160000000,-7.3561172,117.05093,-46.059994,6.5604882,-22.248823,7.7593365,-4.3855643,36.095039
48220000000,-7.1722984,112.43232,-47.004536,-19.644411,-21.316153,-15.434511,-4.3427472,8.0169353
48280000000,-7.1961493,110.53674,-54.179882,-138.87166,-20.165228,-33.839642,-5.5820284,-19.6392
48340000000,-7.4838972,103.47131,-47.394436,105.58669,-18.79114,-65.828773,-7.6076565,-63.067883
48400000000,-7.4770994,98.619171,-51.189865,151.6255,-18.02866,-89.957626,-9.5782156,-121.10017
48460000000,-8.1890583,93.272591,-43.031815,-137.53775,-18.051676,-118.74712,-9.0561247,165.03452
48520000000,-7.9132476,84.573639,-48.152107,-172.86446,-18.027479,-145.70764,-6.3078103,117.82098
48580000000,-7.9082661,80.374031,-55.58025,90.946243,-18.012802,-166.64049,-4.964087,81.425705
48640000000,-7.9532256,73.130722,-46.553455,58.075542,-18.422674,169.64102,-3.8207965,53.274563
48700000000,-7.5554533,69.26387,-52.976528,-144.34741,-18.099197,150.15302,-3.8452463,29.458693
48760000000,-7.7859411,64.80088,-54.423321,123.61682,-17.652338,129.44493,-4.0273404,1.3943158
48820000000,-7.2509475,60.240105,-44.366703,165.15665,-16.833817,110.56092,-4.7133636,-26.408203
48880000000,-7.7010703,59.381466,-44.297791,27.92223,-15.887578,84.720161,-6.4108839,-66.828186
48940000000,-7.7451239,50.952732,-41.591759,124.97323,-14.928124,59.111729,-7.9170547,-121.24368
49000000000,-7.6471167,47.962894,-47.107445,-139.95,-15.342491,29.150793,-7.7465482,171.81137
49060000000,-8.2131844,40.493027,-47.583752,19.143255,-15.072382,1.0500953,-5.4322619,121.03289
49120000000,-7.8044214,30.688509,-54.160027,36.115482,-15.666254,-20.815344,-4.1949253,85.020424
49180000000,-7.7948928,26.287577,-53.257843,-86.545906,-15.809169,-40.451862,-3.2208116,57.279999
49240000000,-7.782258,18.440624,-42.568653,147.73741,-15.921338,-60.702076,-3.031076,34.086338
49300000000,-7.3973942,14.236482,-43.946949,-60.979675,-15.508343,-82.020157,-3.1646249,9.9728708
49360000000,-7.5594177,10.053372,-47.152374,-38.654449,-15.038425,-98.078804,-3.6237776,-14.530985
49420000000,-7.2196474,6.108789,-50.602291,-56.423458,-14.057181,-119.76987,-4.7877316,-46.47401
49480000000,-7.6225815,2.4533927,-48.692112,-92.758293,-13.316231,-144.33891,-6.2961774,-90.0158
49540000000,-7.6498127,-3.0510507,-43.377705,-165.88417,-12.478455,-172.11302,-7.6691761,-150.72403
49600000000,-7.769196,-7.3672333,-42.21698,-176.59387,-12.616126,160.58139,-5.9830303,149.02039
49660000000,-7.8405352,-14.856398,-46.374889,109.44368,-13.084507,136.39578,-4.4617848,107.12322
49720000000,-7.5426264,-22.586632,-42.728619,-171.3143,-13.394914,113.96978,-3.1805387,75.875496
49780000000,-7.7237892,-28.216118,-47.78204,-95.043304,-13.592899,95.259056,-2.8421955,51.417606
49840000000,-7.3422318,-35.49194,-47.880878,70.37632,-13.229047,76.675774,-2.6242294,28.78422
49900000000,-6.9737768,-38.264771,-48.510571,50.40638,-12.947378,58.412354,-2.8892226,7.2283134
49960000000,-7.1221538,-42.721977,-44.110836,-48.611412,-11.878923,39.754654,-3.7173681,-19.904278
50020000000,-6.7933021,-46.76585,-48.629223,70.488869,-10.718254,16.33329,-4.9636717,-53.646408
50080000000,-7.0356374,-47.934872,-46.445553,51.871223,-9.8934431,-7.0787773,-7.1540174,-101.59946
50140000000,-7.0660377,-56.669407,-45.096085,-97.604652,-9.3295069,-36.919804,-7.5223446,-167.69029
50200000000,-7.1051164,-61.772655,-43.51989,-86.177513,-9.3935575,-64.670685,-5.9728198,135.74911
50260000000,-7.226491,-65.572456,-44.107098,-160.03114,-9.7499657,-87.178825,-4.0724998,96.092865
50320000000,-7.2135496,-74.279663,-44.41029,-153.89648,-9.9547501,-108.37125,-3.3011923,69.586014
50380000000,-6.9404707,-81.128296,-39.727909,-88.628685,-9.9958611,-127.69567,-3.031692,44.43261
50440000000,-6.9685202,-85.476143,-46.050472,-100.66563,-9.5534668,-145.01036,-3.1166294,23.221132
50500000000,-6.698617,-90.854553,-44.409233,-125.38607,-8.7539473,-164.7767,-3.8728383,-0.95267034
50560000000,-6.3033485,-92.7938,-48.422974,103.69693,-7.6926088,173.18634,-5.0844798,-31.11628
50620000000,-6.8446488,-99.216248,-51.109852,-136.55563,-6.5294247,148.95786,-7.8186646,-71.149849
50680000000,-6.3959594,-102.58587,-38.766136,89.258743,-5.9463644,121.71818,-10.004368,-141.26302
50740000000,-6.6686502,-104.76794,-40.980892,126.34737,-5.6753259,93.320961,-8.4399166,152.81201
50800000000,-6.4335084,-113.39346,-38.325043,66.428062,-6.0512848,67.363266,-5.8785725,104.51878
50860000000,-6.5686436,-115.82034,-45.59396,83.244484,-6.1033297,44.263863,-4.3470826,75.750969
50920000000,-6.853756,-126.41924,-46.706085,-16.46558,-6.1509275,24.919632,-4.1209426,49.72459
50980000000,-6.3033938,-131.08699,-51.428581,-70.151993,-5.8611646,5.6287313,-3.9812157,26.687634
51040000000,-6.6271591,-137.07086,-42.730736,-45.910378,-4.9660473,-14.163648,-4.9036994,4.7109838
51100000000,-5.8287783,-142.93781,-48.011917,138.97615,-3.9898453,-38.746307,-6.8226743,-29.403965
51160000000,-5.9035168,-140.57401,-42.34795,-107.36546,-3.1898046,-64.087906,-10.382623,-75.124718
51220000000,-5.9518499,-150.66922,-49.234085,135.99956,-2.6513565,-93.344742,-12.437446,-164.93494
51280000000,-5.724607,-152.72249,-35.132736,-173.96361,-2.6550887,-120.44769,-8.3142643,132.28242
51340000000,-6.3571892,-154.93011,-39.18285,162.68399,-3.1746283,-145.32346,-5.8555326,93.549805
51400000000,-6.0890956,-162.65948,-52.770729,175.61943,-3.3377004,-167.10921,-4.3055363,66.03653
51460000000,-6.3537402,-165.36613,-58.382896,112.32693,-3.3768337,173.39264,-4.1088247,43.271473
51520000000,-6.7083178,-176.74524,-44.279148,12.386149,-3.0374541,153.4695,-4.2671971,18.205353
51580000000,-5.9832339,-179.56561,-47.868584,106.92527,-2.3432629,132.36769,-5.070168,-7.2592463
51640000000,-6.4830198,173.22742,-42.959854,46.201561,-1.3559651,109.20312,-7.0865793,-43.170685
51700000000,-5.7543311,167.03619,-44.852184,169.73369,-0.57769829,82.145195,-9.4597416,-98.254173
51760000000,-5.7056756,167.51825,-56.308464,144.32663,-0.27609891,53.995354,-9.6662512,-173.82126
51820000000,-5.8568482,158.57646,-47.839443,64.482628,-0.54709643,26.643467,-6.4463859,131.78026
51880000000,-5.3680749,157.91162,-41.30373,-111.56744,-0.96467584,3.2607267,-4.7819757,96.384331
51940000000,-6.1494579,154.40045,-45.492958,-0.51706439,-1.410008,-17.288158,-3.6260316,69.324799
52000000000,-5.9855995,145.64067,-43.379326,95.622116,-1.5061074,-36.621136,-3.3855987,46.825787
