!CSV A.01.01
!Keysight Technologies,N5247B,MY58422921,A.14.80.08
!Date: Wednesday, April 12, 2023 00:56:22
!Source: Standard

BEGIN CH1_DATA
Freq(Hz),S11(DB),S11(DEG),S12(DB),S12(DEG),S21(DB),S21(DEG),S22(DB),S22(DEG)
40000000000,-18.035318,155.55672,0.81116194,-4.4979982,0.82442909,-4.5878577,-17.818348,115.91489
40060000000,-18.312449,151.00999,0.79569769,-4.5465283,0.79212326,-4.5153337,-17.938066,119.43156
40120000000,-18.318571,147.02094,0.7570762,-4.4518037,0.76093161,-4.530077,-18.101759,120.79816
40180000000,-18.596718,142.05695,0.74533683,-4.4728794,0.73530072,-4.3950291,-18.234015,124.91158
40240000000,-18.831524,136.68776,0.70254356,-4.4707351,0.7187317,-4.4810133,-18.382839,127.14575
40300000000,-19.131863,133.02663,0.69643629,-4.2948551,0.68677974,-4.4298878,-18.449968,131.19875
40360000000,-19.281532,128.90974,0.6634413,-4.3586445,0.66943538,-4.3205948,-18.752068,134.87218
40420000000,-19.431671,123.46394,0.64321607,-4.3710942,0.65344781,-4.2988605,-18.875853,139.05815
40480000000,-19.748096,117.99369,0.62278497,-4.3392744,0.62305588,-4.1940188,-19.129267,142.56248
40540000000,-19.892065,111.09435,0.58864754,-4.208446,0.61554825,-4.2762656,-18.997547,143.6366
40600000000,-19.871252,107.36433,0.56484652,-4.3287454,0.58726031,-4.060451,-19.327494,147.09599
40660000000,-20.024273,101.71906,0.55726618,-4.2630816,0.5569433,-4.1095581,-19.646105,149.35091
40720000000,-20.171076,97.088165,0.54054594,-4.1167555,0.53814536,-4.1429839,-19.608625,153.39171
40780000000,-20.0665,92.352875,0.5361681,-4.1022673,0.52595687,-4.0982404,-19.656479,156.59164
40840000000,-20.316626,89.199547,0.50880229,-4.007072,0.50297374,-4.0516548,-20.084124,158.38344
40900000000,-20.420877,83.655113,0.50148827,-3.9538925,0.47959578,-3.9659531,-20.071735,164.38205
40960000000,-20.353685,80.849686,0.47386435,-3.9243309,0.4899396,-3.9273081,-20.329199,167.59169
41020000000,-20.743729,74.541039,0.45871794,-3.8184185,0.46426144,-3.8215072,-20.367107,170.92773
41080000000,-20.315454,70.033264,0.44293696,-3.6994328,0.44001165,-3.9178679,-20.536684,172.84386
41140000000,-20.460629,65.476555,0.42076159,-3.8201594,0.42353976,-3.7878463,-20.61265,174.91888
41200000000,-20.547361,61.318447,0.42565578,-3.6706808,0.41298836,-3.7248433,-20.98317,178.90103
41260000000,-20.042751,58.383114,0.40152967,-3.6444981,0.39373374,-3.6674299,-21.107018,178.39252
41320000000,-20.206215,54.354843,0.37682968,-3.5787518,0.38761076,-3.6345537,-21.166777,-177.53984
41380000000,-20.144135,51.842064,0.37989557,-3.5671535,0.38538894,-3.5719392,-21.052702,-175.4541
41440000000,-20.154726,49.997261,0.37199843,-3.4989026,0.34960881,-3.4022624,-21.725412,-171.25119
41500000000,-20.500511,47.404961,0.35277894,-3.3351352,0.34886739,-3.4455686,-22.046785,-170.01268
41560000000,-20.566586,44.440693,0.35299563,-3.3232567,0.34768957,-3.4976065,-21.841295,-165.52754
41620000000,-20.28898,43.73782,0.3436017,-3.2651317,0.34698319,-3.3797581,-22.341959,-165.25729
41680000000,-20.782732,40.036018,0.3376289,-3.2925293,0.3303526,-3.3058908,-22.692232,-161.55905
41740000000,-21.112133,36.365189,0.33475447,-3.1213441,0.31047374,-3.1685705,-22.589743,-158.59283
41800000000,-21.129824,34.06102,0.31340042,-3.1916404,0.314942,-3.0642481,-22.65633,-158.14493
41860000000,-21.691444,31.333094,0.27939624,-3.0660033,0.32236236,-3.1023557,-22.875601,-152.59335
41920000000,-21.46501,28.430122,0.30325654,-2.9867702,0.29471463,-2.9512293,-23.389093,-151.38535
41980000000,-22.073839,23.353703,0.28821781,-2.9366946,0.31419656,-2.8651247,-23.592989,-147.4532
42040000000,-21.943678,20.512831,0.29113775,-2.7624915,0.29386073,-2.7452683,-23.80237,-144.95396
42100000000,-22.536186,18.267965,0.292604,-2.8428247,0.26592129,-2.7764633,-23.606606,-141.68913
42160000000,-22.326834,15.107158,0.26076171,-2.6459708,0.27275199,-2.6513793,-23.40877,-141.64023
42220000000,-23.159546,13.100383,0.26093477,-2.7195039,0.27611619,-2.8060985,-23.300058,-139.24507
42280000000,-23.66399,9.428091,0.25259587,-2.5468171,0.25652674,-2.6277866,-23.31354,-137.4592
42340000000,-23.945667,7.0931478,0.26018342,-2.5309334,0.24524556,-2.5946426,-23.629398,-134.45596
42400000000,-24.874626,-2.6687646,0.24767031,-2.6529317,0.23721567,-2.5107923,-22.995674,-129.8333
42460000000,-25.325418,-7.1920519,0.23621407,-2.5519626,0.24215309,-2.4868553,-23.080126,-125.35014
42520000000,-25.702595,-12.260958,0.23819891,-2.440295,0.23716469,-2.5036938,-23.360014,-123.73829
42580000000,-26.143888,-18.045624,0.22098035,-2.309814,0.22986725,-2.4960837,-23.244282,-119.48053
42640000000,-26.561644,-26.074696,0.21690685,-2.4446385,0.22144333,-2.3336384,-22.898743,-116.00317
42700000000,-26.110945,-32.412769,0.21699008,-2.2741268,0.22262442,-2.3137765,-23.170069,-115.96537
42760000000,-26.436045,-37.83419,0.19998521,-2.2891924,0.21385673,-2.2113528,-22.920156,-113.99693
42820000000,-26.439455,-43.40517,0.2013412,-2.1990008,0.20722045,-2.397891,-22.70039,-109.42921
42880000000,-26.452908,-52.480186,0.20738383,-2.1659317,0.19433427,-2.2234211,-22.938688,-101.03112
42940000000,-26.75843,-57.365044,0.18881923,-2.1906071,0.19680691,-2.2372274,-23.20466,-98.168465
43000000000,-26.149916,-60.157623,0.17564607,-2.2780488,0.18713008,-2.2535586,-23.285929,-95.325882
43060000000,-26.252762,-72.092209,0.16442922,-2.0832095,0.19325688,-2.0592251,-22.88835,-91.671371
43120000000,-25.376072,-76.321686,0.18445048,-2.0226426,0.1673349,-2.0100877,-22.92856,-90.765991
43180000000,-25.457006,-77.746361,0.17483059,-2.0460546,0.18966034,-2.0967045,-23.313454,-85.717171
43240000000,-24.710831,-84.501137,0.17245686,-1.8978074,0.17747636,-1.9833188,-22.987722,-84.973412
43300000000,-24.418882,-84.26107,0.1615525,-1.7783732,0.15908566,-1.8771101,-22.926065,-83.470909
43360000000,-24.358768,-86.093246,0.15739639,-1.8084328,0.15751721,-1.8099436,-23.210449,-79.969437
43420000000,-24.335821,-88.082535,0.15896189,-1.7875309,0.14703672,-1.6764966,-23.104679,-78.270241
43480000000,-23.96295,-88.770752,0.17373988,-1.6834419,0.14846335,-1.8072098,-23.47356,-74.857468
43540000000,-24.625334,-90.122124,0.16077578,-1.8158419,0.14996956,-1.7523685,-23.796196,-67.881416
43600000000,-24.753071,-94.128662,0.13501196,-1.6857982,0.15567599,-1.7374325,-23.804556,-64.053596
43660000000,-24.464033,-98.356812,0.14632496,-1.5436867,0.14296587,-1.6134927,-23.876265,-65.728882
43720000000,-24.700584,-100.59823,0.14259464,-1.4988585,0.14326693,-1.5392067,-23.933342,-61.525505
43780000000,-24.390404,-101.29178,0.14331852,-1.5079477,0.14441137,-1.4950724,-24.134943,-59.186218
43840000000,-24.789837,-104.19241,0.13116892,-1.3869643,0.13441668,-1.3812977,-23.656845,-58.675636
43900000000,-24.749622,-105.02053,0.15387994,-1.4457982,0.11940079,-1.4672419,-23.299801,-52.775517
43960000000,-25.009007,-105.3492,0.13109809,-1.3253866,0.14432724,-1.3968942,-23.880072,-49.945808
44020000000,-25.730751,-105.82639,0.14428318,-1.2747793,0.13505612,-1.3221104,-24.12499,-45.285679
44080000000,-26.057177,-107.77241,0.14714882,-1.2618147,0.14010447,-1.273198,-24.516151,-39.892235
44140000000,-27.076563,-106.78321,0.13965781,-1.2082068,0.13270374,-1.2481022,-24.853725,-32.987614
44200000000,-27.919193,-114.46282,0.13158783,-1.2852005,0.14513746,-1.1585042,-24.935291,-30.068928
44260000000,-28.697338,-116.89316,0.14258312,-1.2540858,0.14567268,-1.069616,-24.81871,-24.579277
44320000000,-30.03158,-124.71923,0.135572,-1.0611018,0.14451353,-1.168167,-24.867044,-17.769615
44380000000,-31.320107,-136.15381,0.13003504,-1.0967958,0.1340608,-1.1389173,-24.648544,-10.843291
44440000000,-31.056387,-134.78033,0.14057715,-1.033298,0.1323241,-1.0311469,-24.804142,-8.0817986
44500000000,-32.711697,-149.06824,0.12575862,-0.97249907,0.1346551,-0.96433181,-24.555668,-0.34651873
44560000000,-33.919975,-158.01958,0.12730941,-0.88942635,0.11998855,-0.89357859,-24.321861,6.5707011
44620000000,-35.100315,-168.53279,0.1192517,-0.98257363,0.1299029,-0.8682183,-25.141848,12.275313
44680000000,-35.359962,171.26106,0.12734561,-0.85206079,0.11325357,-0.84108382,-24.796822,18.016212
44740000000,-34.93401,153.10925,0.11271333,-0.74901456,0.1267855,-0.80982411,-24.612938,22.31362
44800000000,-33.390228,132.59023,0.11427585,-0.68199629,0.1272154,-0.80290771,-24.407917,28.405334
44860000000,-30.323093,126.63813,0.10588975,-0.62202728,0.10394461,-0.78413308,-23.541706,34.289932
44920000000,-29.315683,122.75712,0.11036647,-0.66608804,0.10432117,-0.77077264,-23.470997,39.480591
44980000000,-28.142366,117.92944,0.11345683,-0.72300851,0.10504641,-0.73976737,-23.358627,45.129135
45040000000,-27.054457,121.54338,0.090605885,-0.66572428,0.11121131,-0.74518883,-23.216362,50.110279
45100000000,-26.269732,122.99567,0.092199184,-0.6649754,0.095389105,-0.79432237,-23.795456,54.827053
45160000000,-26.119625,121.37774,0.10791482,-0.71945506,0.096845478,-0.65512651,-23.951693,57.465244
45220000000,-25.943874,123.60265,0.097537532,-0.67809284,0.087407373,-0.70527786,-24.172094,60.747662
45280000000,-25.984631,124.33427,0.10591501,-0.65755844,0.085591502,-0.63953167,-24.691038,64.644043
45340000000,-26.000204,122.7606,0.10495949,-0.64152801,0.085067607,-0.74166077,-24.848541,68.728928
45400000000,-25.927343,120.5515,0.098239608,-0.64702505,0.10409018,-0.69924319,-24.878601,74.027969
45460000000,-25.624838,122.34915,0.094707847,-0.57432657,0.096352309,-0.7119869,-24.965263,78.131248
45520000000,-25.403183,119.96828,0.10530109,-0.64564407,0.093287244,-0.6572299,-25.074533,84.363289
45580000000,-25.997927,118.96262,0.11382803,-0.72765321,0.11127993,-0.64811087,-24.532614,86.985809
45640000000,-25.401749,121.27296,0.10462644,-0.74534738,0.093699187,-0.79213333,-26.041729,94.178284
45700000000,-26.044886,125.39393,0.11410187,-0.83000243,0.090777762,-0.77606857,-27.029352,99.233467
45760000000,-26.295816,126.26063,0.097802281,-0.8322885,0.10120407,-0.8647806,-28.106663,105.07342
45820000000,-26.871504,130.89809,0.1048483,-0.84144932,0.10359784,-0.85955238,-28.726681,108.52173
45880000000,-27.392332,132.16768,0.1032116,-0.81369066,0.11214225,-0.80434954,-30.149658,108.42963
45940000000,-28.207619,130.26466,0.1014873,-0.80891865,0.10887121,-0.8184275,-29.326658,116.57298
46000000000,-28.768341,131.66051,0.10651621,-0.81497365,0.11164778,-0.76677454,-29.610933,127.24144
46060000000,-30.597498,126.0075,0.10161981,-0.88662428,0.11025493,-0.89828366,-30.731474,136.325
46120000000,-31.263309,126.90448,0.11219018,-0.86086202,0.10208305,-0.97281617,-31.171453,135.08334
46180000000,-32.324772,122.91815,0.10497313,-0.80180645,0.099842764,-0.95155847,-31.336464,145.6586
46240000000,-32.043152,120.0448,0.098524556,-1.0123147,0.088358141,-0.86934012,-31.13929,146.8678
46300000000,-31.454292,112.92355,0.10917313,-0.96189171,0.093726039,-1.0035599,-32.598949,145.30783
46360000000,-32.728565,117.92121,0.10052574,-0.91899067,0.10031378,-0.88132018,-32.554871,151.4288
46420000000,-33.336712,119.95074,0.1082668,-0.80357355,0.098139897,-0.97064054,-31.922188,163.25729
46480000000,-34.271748,130.43108,0.094871461,-0.90009236,0.10584529,-0.91200531,-31.989605,168.11803
46540000000,-36.345757,118.75202,0.10958154,-0.88353032,0.11428392,-0.85460889,-32.184959,168.11119
46600000000,-41.5951,101.11543,0.10196219,-0.86476761,0.10744311,-0.85433775,-30.519014,179.4453
46660000000,-38.401207,124.67583,0.12911497,-0.74159831,0.11156049,-0.75221777,-30.439095,-169.91145
46720000000,-43.766445,74.665627,0.10582912,-0.79624122,0.10309078,-0.71546298,-30.809677,-167.96359
46780000000,-43.813934,52.739807,0.11119768,-0.73827755,0.12037077,-0.76511389,-29.848198,-169.60228
46840000000,-40.327267,44.919106,0.11010804,-0.79313421,0.10831225,-0.81780046,-31.063599,-167.71973
46900000000,-38.191414,20.940994,0.10680668,-0.70136559,0.10751028,-0.82310134,-31.161949,-162.11032
46960000000,-37.162434,17.563431,0.10645609,-0.68779606,0.10174928,-0.82119346,-31.964546,-164.40959
47020000000,-34.740482,21.828146,0.10898633,-0.73935425,0.11034628,-0.75076491,-30.992353,-158.62329
47080000000,-35.385777,19.951523,0.10642477,-0.65612417,0.11878727,-0.72115332,-31.942738,-152.44424
47140000000,-34.864059,17.101906,0.10409574,-0.72098547,0.11313756,-0.82872421,-31.704477,-146.07516
47200000000,-34.918053,20.015131,0.099227481,-0.71358311,0.10874549,-0.76210642,-32.475674,-142.24904
47260000000,-33.067242,7.1747832,0.11047398,-0.70494759,0.085698605,-0.75950491,-34.163853,-135.9482
47320000000,-32.440403,9.6839619,0.10753655,-0.80178231,0.11303364,-0.74924481,-32.839752,-137.75835
47380000000,-31.833055,7.4047518,0.091195516,-0.71507812,0.10222515,-0.72615415,-35.297783,-132.56888
47440000000,-31.744959,8.5620289,0.10516314,-0.61361426,0.088925257,-0.72070104,-33.804459,-123.77401
47500000000,-31.221266,5.727005,0.10031833,-0.65861803,0.087364748,-0.84752035,-35.785442,-135.84999
47560000000,-31.229914,2.248441,0.095111549,-0.77662224,0.098742679,-0.74144578,-34.447392,-125.35826
47620000000,-30.324207,6.0643253,0.082208447,-0.73019105,0.085932605,-0.79602975,-35.699055,-128.90373
47680000000,-30.903168,9.5494795,0.098031074,-0.70567238,0.085754447,-0.78131598,-35.260128,-113.27776
47740000000,-29.87941,11.302697,0.10594533,-0.68321294,0.092659377,-0.78954196,-34.551708,-113.0622
47800000000,-31.523859,7.3492527,0.090381771,-0.7912184,0.10422413,-0.76290452,-36.507324,-107.53
47860000000,-31.207029,4.1904044,0.094321333,-0.6817252,0.091400832,-0.80585939,-35.238369,-105.18224
47920000000,-32.499321,3.8477008,0.083029822,-0.79092205,0.063180909,-0.74582732,-36.978123,-118.97004
47980000000,-32.531998,-3.7493393,0.06027513,-0.68690515,0.082309544,-0.75625622,-37.780159,-117.66158
48040000000,-33.284885,-11.252331,0.076149233,-0.77751476,0.064149752,-0.70251763,-35.351662,-115.37494
48100000000,-33.031517,-10.796609,0.071225077,-0.67797166,0.075930476,-0.70530897,-35.540733,-111.74842
48160000000,-33.40749,-14.728171,0.074213631,-0.67292821,0.080813222,-0.67827094,-36.103355,-108.39125
48220000000,-32.995747,-24.768152,0.083684474,-0.65884465,0.070526771,-0.63242775,-36.343105,-108.01295
48280000000,-33.729073,-32.146587,0.080361433,-0.66784495,0.074822284,-0.72778261,-35.582874,-94.366219
48340000000,-34.032314,-24.649115,0.069160908,-0.66024292,0.070341356,-0.68900698,-35.931812,-112.03616
48400000000,-34.497288,-37.087547,0.078754626,-0.73120999,0.064112,-0.75187677,-35.006618,-100.80527
48460000000,-34.344032,-46.265526,0.067111567,-0.71176326,0.070060663,-0.7568047,-33.27993,-94.2314
48520000000,-36.524887,-47.551807,0.044128578,-0.62251765,0.068831734,-0.53386146,-34.970573,-109.96313
48580000000,-34.256752,-58.66074,0.061251767,-0.73897266,0.061683092,-0.71717465,-31.92977,-100.90995
48640000000,-33.650101,-71.850517,0.045785129,-0.65583062,0.043551996,-0.82000268,-30.687027,-101.73861
48700000000,-32.925079,-73.975693,0.07034798,-0.74821186,0.06563805,-0.68838018,-31.630875,-98.435143
48760000000,-31.778654,-93.068771,0.053675421,-0.7557016,0.043230101,-0.79206365,-29.503353,-86.649254
48820000000,-31.238487,-84.825333,0.048571095,-0.67322147,0.053979158,-0.72817189,-30.104792,-96.545631
48880000000,-31.376493,-85.085945,0.048607443,-0.66090381,0.044507802,-0.74710613,-29.092638,-90.46698
48940000000,-30.557877,-86.935677,0.066979021,-0.62060916,0.054343715,-0.59446603,-30.951845,-93.151306
49000000000,-29.123367,-82.56295,0.036731731,-0.73727483,0.041278739,-0.69353938,-29.892157,-92.756386
49060000000,-29.711468,-86.818642,0.052179947,-0.79231554,0.042218126,-0.70911914,-29.285948,-83.065811
49120000000,-30.565605,-84.710503,0.04820656,-0.68809891,0.042554453,-0.83103752,-29.375711,-79.749649
49180000000,-30.736437,-95.142525,0.036555644,-0.6335662,0.03518676,-0.65741706,-29.315826,-71.365326
49240000000,-30.724194,-94.115242,0.03684929,-0.68839896,0.03248366,-0.73122156,-29.418638,-75.524811
49300000000,-29.516472,-101.74773,0.0218002,-0.70772886,0.011331026,-0.77414554,-28.179327,-63.714466
49360000000,-29.63825,-99.770874,0.032267835,-0.76433462,0.038986333,-0.85176975,-28.534222,-55.79147
49420000000,-29.216602,-99.141869,0.023023453,-0.63774747,0.01875937,-0.6389603,-28.972763,-64.162781
49480000000,-28.517771,-103.6442,0.017780863,-0.55819774,0.04300404,-0.61406308,-28.623896,-63.219528
49540000000,-29.131529,-99.021187,0.014553013,-0.75713569,0.029376257,-0.76880825,-28.077824,-50.986267
49600000000,-29.517982,-98.604607,0.044454508,-0.63447851,0.027509203,-0.70161569,-29.66567,-53.411736
49660000000,-28.904047,-92.789055,0.016786665,-0.54809701,0.022732479,-0.72287112,-28.599434,-51.559769
49720000000,-28.815659,-94.100471,0.015904175,-0.68757755,0.019208852,-0.53979635,-28.98283,-48.258129
49780000000,-30.552113,-94.593567,0.032674816,-0.66181952,0.026439531,-0.58837742,-29.335539,-45.317852
49840000000,-30.022314,-93.934807,0.032719519,-0.52979469,0.02774173,-0.75783718,-29.786888,-33.210171
49900000000,-31.33717,-94.181625,0.019138752,-0.6366756,0.014770755,-0.62133694,-28.777109,-31.799759
49960000000,-32.111198,-108.48361,0.030394826,-0.62876523,0.03909767,-0.66333717,-30.761381,-24.253216
50020000000,-32.165596,-108.30939,0.028242234,-0.56099123,0.032552004,-0.58504546,-30.183477,-30.864748
50080000000,-30.841492,-106.49614,0.03218253,-0.47462618,0.015789144,-0.47543049,-29.839443,-36.465015
50140000000,-32.228931,-104.38596,0.034532972,-0.59585452,0.017260587,-0.61955553,-30.544052,-20.592329
50200000000,-31.784842,-106.57481,0.031846426,-0.37838304,0.021783715,-0.48441869,-30.343245,-34.845695
50260000000,-33.137943,-111.70329,0.034931522,-0.57270825,0.029047653,-0.52124155,-31.155743,-22.126183
50320000000,-32.489502,-102.61194,0.029864233,-0.47666892,0.01873978,-0.35012144,-31.109659,-15.513104
50380000000,-33.195271,-99.213654,0.027510747,-0.45499924,0.027369272,-0.37831545,-32.1745,-16.449421
50440000000,-36.218685,-99.487633,0.031961545,-0.33465898,0.040001109,-0.49615675,-33.977421,-16.575827
50500000000,-38.135757,-104.55365,0.037522744,-0.36982718,0.015971232,-0.32323974,-32.783894,-11.187617
50560000000,-37.11182,-108.48707,0.024339547,-0.39446917,0.015758192,-0.37977433,-32.850533,3.0361917
50620000000,-40.130997,-124.99257,0.013380532,-0.30153251,0.015718989,-0.33601746,-31.69705,-1.9009414
50680000000,-38.525875,-141.644,0.032846946,-0.29096884,0.0086207846,-0.37901953,-32.810535,-2.6334984
50740000000,-36.882309,-131.91608,0.014668593,-0.27450514,0.017401878,-0.18273415,-31.160641,9.9733458
50800000000,-38.999432,-150.95627,0.015317123,-0.25261006,0.026560454,-0.24147166,-32.417957,13.33807
50860000000,-37.398701,-138.93082,0.031583797,-0.16596858,0.009992904,-0.29266754,-33.562328,22.812248
50920000000,-38.127861,-155.57254,0.021190761,-0.20639127,0.03614749,-0.31707883,-36.740864,14.421432
50980000000,-41.350643,-157.68159,0.018384079,-0.27631319,0.0075381785,-0.20605738,-37.492104,28.57642
51040000000,-48.81826,-159.20576,0.0027880592,-0.18979137,0.017021311,-0.10524149,-36.668663,58.253326
51100000000,-47.222565,-177.06123,0.023669707,-0.1628588,0.026189439,-0.28785941,-39.272804,64.393761
51160000000,-41.511745,160.44972,0.0067473697,-0.12781315,0.015154613,-0.27653188,-34.291584,62.560894
51220000000,-36.298626,128.1969,0.0093110316,-0.21435978,0.0079929577,-0.040097281,-34.513844,68.580505
51280000000,-36.821976,140.59958,0.011242209,-0.20236443,0.017578742,-0.090041012,-35.730122,77.552307
51340000000,-35.635315,150.98546,0.005525209,-0.22526884,0.013623104,-0.34585059,-36.73032,98.220291
51400000000,-33.460663,146.4866,0.0041723666,-0.066442907,0.029427165,-0.25774276,-36.607014,82.273247
51460000000,-34.889797,154.71602,0.017255431,-0.25015593,0.011803995,-0.20562369,-36.198181,108.49554
51520000000,-33.987801,156.30841,-0.0064190254,-0.23272,-0.003542386,-0.21407934,-35.707607,128.60606
51580000000,-34.393101,160.15025,0.019244416,-0.17489038,0.0062495512,-0.074066214,-37.51395,123.26391
51640000000,-35.667225,167.35562,0.019068651,-0.24259327,0.012107577,-0.23449376,-37.117561,156.40337
