!CSV A.01.01
!Keysight Technologies,N5247B,MY58422921,A.14.80.08
!Date: Wednesday, April 12, 2023 00:56:39
!Source: Standard

BEGIN CH1_DATA
Freq(Hz),S21(DB),S21(DEG)
40000000000,-7.2207723,80.758743
40060000000,-7.2113543,-47.886456
40120000000,-7.3920951,-175.78879
40180000000,-7.6323862,57.924217
40240000000,-7.4714327,-68.182877
40300000000,-7.5561743,165.83778
40360000000,-7.1331544,38.591305
40420000000,-7.0051394,-89.276802
40480000000,-6.9543066,140.60385
40540000000,-7.3439674,12.545466
40600000000,-7.4569435,-114.13228
40660000000,-7.6173658,119.56085
40720000000,-7.5212288,-6.4231992
40780000000,-7.2598667,-133.19193
40840000000,-7.1993952,97.058037
40900000000,-7.3423543,-30.445234
40960000000,-7.2915292,-159.47935
41020000000,-7.9631085,73.669464
41080000000,-7.6998272,-51.029701
41140000000,-7.3815265,-177.24637
41200000000,-7.2838988,53.0205
41260000000,-7.3991323,-75.195366
41320000000,-7.6408234,156.68553
41380000000,-7.9270554,29.954096
41440000000,-8.0595331,-95.181267
41500000000,-7.8510199,139.99994
41560000000,-7.5116758,11.404554
41620000000,-7.6024904,-114.52907
41680000000,-7.1859961,116.2007
41740000000,-7.5445452,-12.118852
41800000000,-7.6377873,-139.36894
41860000000,-7.7090845,95.267174
41920000000,-7.432323,-31.470005
41980000000,-7.2585893,-160.04068
42040000000,-7.3895106,72.084671
42100000000,-7.4038296,-56.409191
42160000000,-7.5182958,176.62473
42220000000,-7.6584444,49.642971
42280000000,-7.6599002,-77.552238
42340000000,-7.5450931,156.84924
42400000000,-7.3866777,28.26269
42460000000,-7.3066688,-99.434044
42520000000,-7.4864931,131.35539
42580000000,-7.818203,4.6902041
42640000000,-7.7985854,-121.27394
42700000000,-7.6561589,111.76591
42760000000,-7.5130672,-15.694726
42820000000,-7.4552746,-144.54417
42880000000,-7.6745439,88.38253
42940000000,-7.6921582,-38.560555
43000000000,-7.802752,-165.86494
43060000000,-7.7350531,68.040443
43120000000,-7.6698294,-59.018654
43180000000,-7.5623736,173.37146
43240000000,-7.5138965,44.8447
43300000000,-7.7147493,-82.882034
43360000000,-7.6521378,149.77469
43420000000,-7.8251562,21.67635
43480000000,-7.8629208,-102.38916
43540000000,-7.4867907,129.93802
43600000000,-7.5058475,0.90830171
43660000000,-7.6335406,-125.62509
43720000000,-7.7137318,105.76562
43780000000,-7.8996682,-19.853857
43840000000,-7.7892823,-147.59604
43900000000,-7.8509359,86.246552
43960000000,-7.5265603,-41.88596
44020000000,-7.7391982,-170.76671
44080000000,-7.7728267,62.55151
44140000000,-7.8723984,-64.693024
44200000000,-7.9274969,169.41203
44260000000,-7.6644139,42.723572
44320000000,-7.5362854,-85.260109
44380000000,-7.5057845,145.98166
44440000000,-7.7726426,15.898816
44500000000,-8.1008062,-108.65395
44560000000,-8.211812,123.59625
44620000000,-8.2040033,0.1247
44680000000,-7.6614957,-128.10239
44740000000,-7.4479365,102.69495
44800000000,-7.5492916,-27.305357
44860000000,-7.9694552,-155.67332
44920000000,-8.3765907,78.368355
44980000000,-8.4101639,-45.41674
45040000000,-8.2533493,-172.33434
45100000000,-7.8891482,61.477024
45160000000,-7.8200407,-67.666847
45220000000,-7.8453012,162.93742
45280000000,-8.1130428,35.473503
45340000000,-8.349966,-90.301277
45400000000,-8.1441584,144.29877
45460000000,-7.9185681,16.698296
45520000000,-7.7070627,-111.46518
45580000000,-7.7457223,119.51878
45640000000,-7.9365993,-9.4474421
45700000000,-8.2753735,-135.95488
45760000000,-8.5192852,98.523079
45820000000,-8.225029,-26.795088
45880000000,-8.0983295,-154.32321
45940000000,-7.9143467,78.666306
46000000000,-7.8072987,-50.888432
46060000000,-8.1330776,-179.3288
46120000000,-8.2051487,54.173084
46180000000,-8.2570925,-72.105949
46240000000,-8.1530485,160.32297
46300000000,-8.3143616,34.019917
46360000000,-7.9570208,-94.071777
46420000000,-8.1487494,137.3278
46480000000,-8.3717842,10.971613
46540000000,-8.2528343,-114.21785
46600000000,-8.184762,116.96915
46660000000,-8.0878687,-8.124177
46720000000,-7.9632955,-137.01254
46780000000,-7.888308,95.143616
46840000000,-7.9259672,-33.130592
46900000000,-8.0509424,-160.51137
46960000000,-8.1748819,71.628357
47020000000,-8.0577726,-53.832886
47080000000,-7.964951,176.85617
47140000000,-8.1600952,49.869251
47200000000,-8.2473478,-79.33075
47260000000,-8.7709398,156.35587
47320000000,-8.5459785,31.434338
47380000000,-7.9346328,-94.776794
47440000000,-7.8524041,134.77316
47500000000,-7.9710069,6.8620749
47560000000,-7.99441,-120.24134
47620000000,-7.9678869,111.39702
47680000000,-8.3048105,-16.867599
47740000000,-8.3778276,-143.16794
47800000000,-8.5571432,91.381668
47860000000,-8.1602421,-35.687252
47920000000,-8.2877188,-163.73462
47980000000,-8.0579252,68.949448
48040000000,-8.3721018,-60.230118
48100000000,-8.3918867,175.28593
48160000000,-8.1590519,47.067245
48220000000,-8.0575523,-80.836891
48280000000,-8.1458588,150.92203
48340000000,-8.393918,25.24999
48400000000,-8.0610743,-103.24272
48460000000,-8.4652367,129.56407
48520000000,-8.4651804,4.0064569
48580000000,-8.0513353,-124.25436
48640000000,-8.7274218,107.71205
48700000000,-8.2249908,-16.825254
48760000000,-8.0563488,-145.49918
48820000000,-8.0050392,86.723701
48880000000,-8.1268539,-42.24268
48940000000,-8.2875929,-168.39366
49000000000,-8.2500143,64.924484
49060000000,-8.0624485,-62.714027
49120000000,-8.1273394,168.34415
49180000000,-8.1963015,40.546803
49240000000,-8.6275043,-87.027557
49300000000,-8.4963331,149.36745
49360000000,-8.2443123,21.29006
49420000000,-8.1597548,-107.43196
49480000000,-8.6127644,125.29694
49540000000,-8.3699503,0.24632911
49600000000,-8.1024628,-128.96451
49660000000,-8.2393827,101.76464
49720000000,-8.4096546,-23.998684
49780000000,-8.2538986,-152.13539
49840000000,-8.4061403,81.586853
49900000000,-8.3353682,-46.312492
49960000000,-8.5276165,-173.30736
50020000000,-8.4073744,59.126564
50080000000,-8.9977093,-66.4888
50140000000,-8.2807016,166.8008
50200000000,-8.4370441,38.144726
50260000000,-8.5065584,-90.270248
50320000000,-8.5385942,143.5334
50380000000,-8.4514198,15.459891
50440000000,-8.6592188,-111.93398
50500000000,-8.7575922,120.38672
50560000000,-8.5568609,-5.6186833
50620000000,-8.7429056,-136.20773
50680000000,-9.4589348,99.483978
50740000000,-9.1042585,-23.867659
50800000000,-8.923666,-149.95619
50860000000,-8.2644033,81.466255
50920000000,-8.3065386,-46.274132
50980000000,-8.1108179,-176.12752
51040000000,-8.2948561,55.218533
51100000000,-8.6274748,-73.584648
51160000000,-8.8717813,161.85802
51220000000,-8.7098255,34.590694
51280000000,-8.7576723,-90.315079
51340000000,-8.2334719,140.97285
51400000000,-8.3892565,12.240736
51460000000,-8.5759077,-116.06374
51520000000,-8.7132702,118.45016
51580000000,-8.4539175,-8.4797945
51640000000,-8.5351667,-136.37404
51700000000,-8.5844889,95.901939
51760000000,-8.4247704,-30.295191
51820000000,-8.3387375,-160.04674
51880000000,-8.7236271,72.073982
51940000000,-8.5743713,-53.977127
52000000000,-8.9025879,179.5938
52060000000,-8.4810915,51.838787
52120000000,-8.605278,-74.513474
52180000000,-8.4509335,156.5777
52240000000,-8.637722,28.420691
52300000000,-8.8998632,-98.007278
52360000000,-8.6933012,136.52963
52420000000,-8.5983953,6.8772182
52480000000,-8.6788769,-119.44051
52540000000,-8.6915207,111.91447
52600000000,-8.8288136,-14.648229
52660000000,-8.855814,-142.756
52720000000,-9.2562151,92.671242
52780000000,-8.7488594,-33.240479
52840000000,-8.6804428,-160.88054
52900000000,-8.3671646,71.391449
52960000000,-8.4214554,-57.577957
53020000000,-8.4102077,174.75284
53080000000,-8.4868193,46.824379
53140000000,-8.6264677,-80.752357
53200000000,-8.6309032,153.5367
53260000000,-8.4111853,25.050203
53320000000,-8.5255766,-102.17438
53380000000,-8.5028114,130.13211
53440000000,-8.4559584,2.5160706
53500000000,-8.7416821,-126.07225
53560000000,-8.8620234,109.20414
53620000000,-8.6447926,-18.266706
53680000000,-8.6606703,-145.35555
53740000000,-8.4686556,87.000977
53800000000,-8.3839722,-41.421165
53860000000,-8.4563398,-170.32222
53920000000,-8.5874319,62.572388
53980000000,-8.6192245,-66.260406
54040000000,-9.0116892,167.3732
54100000000,-8.8871307,41.148003
54160000000,-9.0081234,-86.300148
54220000000,-8.7522917,148.05945
54280000000,-8.6959009,18.527048
54340000000,-8.7414408,-108.77219
54400000000,-8.6965837,123.16282
54460000000,-8.8521023,-5.6841536
54520000000,-9.0527506,-132.32425
54580000000,-8.9959307,100.69974
54640000000,-8.9821062,-27.999569
54700000000,-9.4997072,-156.86371
54760000000,-9.5498486,80.68206
54820000000,-9.5752506,-48.423859
54880000000,-9.3749342,-171.45473
54940000000,-9.0558167,59.390839
55000000000,-9.1076231,-68.866455
55060000000,-8.9095201,163.64584
55120000000,-8.9661427,34.963238
55180000000,-8.9865599,-93.811905
55240000000,-9.4191122,137.56111
55300000000,-9.3006897,12.494203
55360000000,-9.5261183,-116.63708
55420000000,-9.6743584,117.41965
55480000000,-9.8027477,-10.108411
55540000000,-10.590089,-134.74817
55600000000,-9.6178131,104.091
55660000000,-9.2377548,-25.312761
55720000000,-8.9162483,-152.8324
55780000000,-8.5845604,77.29203
55840000000,-8.7108078,-52.423092
55900000000,-8.9966488,178.8503
55960000000,-9.2181797,52.679207
56020000000,-9.1242304,-72.507561
56080000000,-8.7800493,159.60414
56140000000,-8.5060244,30.907558
56200000000,-8.6848679,-99.64045
56260000000,-8.8551197,131.36427
56320000000,-9.5364676,3.9715195
56380000000,-9.8456717,-118.95721
56440000000,-9.6337252,116.70459
56500000000,-9.253006,-10.525183
56560000000,-8.840415,-138.63551
56620000000,-8.6235294,91.50782
56680000000,-8.9597807,-39.547146
56740000000,-10.072341,-166.09393
56800000000,-9.458333,73.218163
56860000000,-9.5818901,-56.94051
56920000000,-9.2522516,179.65955
56980000000,-9.2363367,49.661148
57040000000,-8.5640812,-74.246078
57100000000,-8.7444983,151.60352
57160000000,-8.9504757,26.6455
57220000000,-9.2695198,-100.40926
57280000000,-9.1984282,135.49564
57340000000,-8.5980139,9.3754168
57400000000,-8.2055407,-121.97229
57460000000,-8.6121588,108.61867
57520000000,-8.7878513,-20.53207
57580000000,-9.3862,-144.35286
57640000000,-8.9172974,88.312897
57700000000,-9.6771107,-39.326988
57760000000,-9.1211624,-161.00963
57820000000,-8.7302961,71.300369
57880000000,-8.0094357,-58.246803
57940000000,-8.2793264,169.71356
58000000000,-8.8151283,40.355438
58060000000,-9.0528822,-84.723701
58120000000,-9.3674173,147.81145
58180000000,-9.2124348,23.249731
58240000000,-9.1156826,-106.77431
58300000000,-9.6281824,128.50356
58360000000,-9.3140345,2.9503198
58420000000,-9.2641802,-124.61728
58480000000,-9.1438246,109.26487
58540000000,-8.9442005,-19.232513
58600000000,-8.8827839,-147.09727
58660000000,-8.7167988,83.623695
58720000000,-9.0479927,-45.839561
58780000000,-9.0894575,-172.28735
58840000000,-9.2060242,60.599476
58900000000,-9.3970995,-68.92791
58960000000,-9.4663363,165.68842
59020000000,-9.8457479,38.073105
59080000000,-9.3996735,-89.093216
59140000000,-10.378011,141.3763
59200000000,-10.072094,22.81057
59260000000,-9.5916882,-106.19942
59320000000,-9.1254883,127.72684
59380000000,-8.8440161,-4.5617337
59440000000,-9.2322054,-134.11131
59500000000,-9.508811,99.779831
59560000000,-9.3602066,-27.241121
59620000000,-9.1691666,-155.41318
59680000000,-9.4411259,74.608841
59740000000,-9.960824,-51.793861
59800000000,-9.6438303,-175.5054
59860000000,-9.6919689,55.136681
59920000000,-9.6047573,-71.200729
59980000000,-9.7435122,161.88937
60040000000,-9.4379463,36.830715
60100000000,-8.9820337,-92.342598
60160000000,-9.0097685,136.15408
60220000000,-9.3945189,7.0685062
60280000000,-10.022814,-120.70515
60340000000,-10.339453,116.82625
60400000000,-9.8374748,-9.4507465
60460000000,-10.021079,-137.65479
60520000000,-9.892498,96.725647
60580000000,-9.7037601,-29.66872
60640000000,-9.2109499,-159.71545
60700000000,-9.4292984,70.357811
60760000000,-9.7915936,-57.831642
60820000000,-10.043126,175.17401
60880000000,-10.143026,48.46352
60940000000,-10.179712,-78.403633
61000000000,-10.10598,154.36478
61060000000,-10.29037,25.941486
61120000000,-10.132337,-99.55761
61180000000,-10.317553,132.41148
61240000000,-9.9904385,6.7909479
61300000000,-9.7001991,-121.84082
61360000000,-9.8194437,107.73822
61420000000,-10.203398,-19.561388
61480000000,-10.637978,-144.95901
61540000000,-10.166574,91.460014
61600000000,-9.9139042,-38.13596
61660000000,-9.8397255,-166.52502
61720000000,-10.049901,62.871994
61780000000,-10.363183,-61.275391
61840000000,-10.049358,169.1377
61900000000,-10.471334,41.250454
61960000000,-10.582855,-84.413559
62020000000,-10.565149,149.93994
62080000000,-9.9509878,22.129835
62140000000,-9.9919224,-110.28308
62200000000,-10.771752,119.75839
62260000000,-11.217389,-7.4133339
62320000000,-12.258558,-132.63167
62380000000,-11.92018,105.00288
62440000000,-12.33423,-21.917559
62500000000,-11.629403,-145.82863
62560000000,-11.956402,83.303963
62620000000,-11.683636,-39.927017
62680000000,-12.076521,-172.96486
62740000000,-12.544024,65.043167
62800000000,-12.594113,-61.02615
62860000000,-12.298644,174.38498
62920000000,-12.297046,45.360687
62980000000,-12.281333,-82.112396
63040000000,-12.714653,150.39037
63100000000,-12.911466,23.565439
63160000000,-13.517344,-99.293861
63220000000,-12.970075,139.18636
63280000000,-12.385731,14.436871
63340000000,-11.513543,-114.22433
63400000000,-11.143914,115.63655
63460000000,-11.250478,-17.845705
63520000000,-12.184216,-141.74152
63580000000,-11.996203,91.00647
63640000000,-12.663128,-31.577272
63700000000,-11.595696,-154.40305
63760000000,-10.95824,75.400261
63820000000,-10.319823,-54.35104
63880000000,-10.198249,174.24396
63940000000,-10.3297,44.137985
64000000000,-10.790257,-84.656227
64060000000,-11.40755,151.04211
64120000000,-10.764717,24.636028
64180000000,-11.178267,-102.89713
64240000000,-10.338812,133.69174
64300000000,-10.218694,1.3352566
64360000000,-10.61826,-125.93597
64420000000,-10.795847,106.88138
64480000000,-10.931973,-19.537472
64540000000,-10.860101,-145.04112
64600000000,-10.685436,86.368942
64660000000,-10.427004,-40.122631
64720000000,-10.283947,-170.51161
64780000000,-10.464316,61.649048
64840000000,-10.67944,-67.576653
64900000000,-10.693233,168.04846
64960000000,-10.641423,38.234074
65020000000,-10.954143,-88.014915
65080000000,-10.802333,144.44054
65140000000,-10.882569,15.66818
65200000000,-11.31597,-112.54779
65260000000,-11.315873,122.74732
65320000000,-11.448157,-6.1105604
65380000000,-11.586801,-129.23396
65440000000,-11.056354,103.03844
65500000000,-11.222809,-26.270468
65560000000,-11.281332,-151.37999
65620000000,-11.009346,80.434998
65680000000,-11.094027,-47.057926
65740000000,-11.015908,-175.36726
65800000000,-10.87678,56.580372
65860000000,-11.185015,-72.144203
65920000000,-11.362111,162.03275
65980000000,-11.506013,35.384541
66040000000,-11.580771,-91.094566
66100000000,-11.359433,146.90295
66160000000,-10.664215,15.568484
66220000000,-11.117241,-110.79968
66280000000,-10.676008,120.09508
66340000000,-11.086438,-8.3616323
66400000000,-11.114373,-135.62146
66460000000,-11.192997,99.784225
66520000000,-10.699368,-30.876068
66580000000,-11.419333,-159.49126
66640000000,-11.182282,74.558739
66700000000,-11.502131,-54.296505
66760000000,-11.89137,-179.13257
66820000000,-11.728271,57.336449
66880000000,-11.335457,-68.920944
66940000000,-10.957561,164.21758
67000000000,-10.724174,33.951572
67060000000,-10.97066,-95.397881
67120000000,-11.277384,136.50548
67180000000,-11.83045,10.328932
67240000000,-11.943269,-113.93931
67300000000,-11.698805,120.69911
67360000000,-11.48999,-7.9663291
67420000000,-11.374454,-134.47949
67480000000,-11.258256,94.29055
67540000000,-11.651853,-34.00029
67600000000,-12.138959,-161.83327
67660000000,-12.362717,73.609901
67720000000,-12.446135,-52.676693
67780000000,-12.568969,-176.78023
67840000000,-11.937274,55.447456
67900000000,-11.872581,-73.284698
67960000000,-12.186078,156.74028
68020000000,-12.569563,30.410461
68080000000,-12.681229,-96.164421
68140000000,-12.920232,138.01825
68200000000,-12.949207,10.968793
68260000000,-12.814056,-112.13489
68320000000,-12.387086,121.04543
68380000000,-11.783557,-5.1531444
68440000000,-10.551674,-142.61221
68500000000,-12.689833,86.371078
68560000000,-13.52361,-40.118843
68620000000,-14.270253,-159.0197
68680000000,-13.208585,80.042152
68740000000,-12.712401,-47.167316
68800000000,-12.708038,-176.55179
68860000000,-12.324019,57.716282
68920000000,-13.067696,-72.588684
68980000000,-12.956878,163.40361
69040000000,-13.324635,38.827644
69100000000,-12.921827,-85.814133
69160000000,-12.7559,149.14613
69220000000,-12.211949,23.950888
69280000000,-11.724843,-104.66286
69340000000,-11.545656,125.297
69400000000,-11.971804,-3.7017183
69460000000,-12.347958,-129.37959
69520000000,-12.946709,108.36726
69580000000,-11.888741,-11.059384
69640000000,-11.514448,-136.80521
69700000000,-10.227087,95.430428
69760000000,-10.663768,-33.740223
69820000000,-9.5749874,-150.49326
69880000000,-8.7364683,77.148293
69940000000,-8.2689171,-51.099552
70000000000,-7.7924972,-179.91275
END

