!CSV A.01.01
!Keysight Technologies,N5247B,MY58422921,A.14.80.08
!Date: Wednesday, April 12, 2023 05:36:35
!Source: Standard

BEGIN CH1_DATA
Freq(Hz),S11(DB),S11(DEG),S12(DB),S12(DEG),S21(DB),S21(DEG),S22(DB),S22(DEG)
40000000000,-3.8457239,52.123409,-65.432129,61.8689,-15.980925,75.87439,-8.0136595,-133.88724
40060000000,-4.3243122,37.760632,-71.259956,-27.259287,-16.287895,49.280762,-8.7044296,137.51686
40120000000,-3.7258601,46.120911,-62.028015,-36.886528,-16.694052,21.127131,-3.8496766,111.99157
40180000000,-5.6709414,34.764935,-62.106567,-49.495857,-17.011793,-0.69803149,-5.9211636,76.537102
40240000000,-4.2320309,30.841816,-60.096634,-79.167542,-17.501808,-20.418148,-3.3469338,47.6297
40300000000,-6.2756524,22.616245,-57.469921,-100.38722,-17.458986,-41.334969,-5.3836331,34.264927
40360000000,-4.3981056,8.9438353,-58.190655,-126.84628,-17.253244,-61.591061,-5.5670881,-11.361934
40420000000,-5.4617739,12.271901,-55.407864,-146.57716,-16.540771,-82.119453,-6.1231236,-25.291891
40480000000,-4.5341716,-4.5661192,-52.998329,-170.66779,-16.033514,-106.92313,-9.6099558,-97.957115
40540000000,-3.9004784,5.7206054,-52.710136,148.35249,-15.409452,-135.18633,-7.103126,-133.4897
40600000000,-4.891952,-5.6915503,-51.95808,121.23553,-15.454807,-162.93034,-8.8285904,146.16394
40660000000,-3.4382448,-1.4618193,-53.933788,91.21402,-16.178604,170.68355,-4.673162,121.08563
40720000000,-5.807765,-2.5405402,-52.87569,68.759216,-16.261112,146.98155,-6.9680524,84.727074
40780000000,-4.1966238,-13.443117,-53.79948,40.454937,-16.754177,125.93703,-4.0034776,52.444256
40840000000,-6.3637071,-5.3200946,-53.658058,18.490625,-16.612684,103.36684,-6.2192626,35.784241
40900000000,-5.886827,-38.244022,-53.456142,-4.0670624,-16.019712,81.960182,-4.8715863,-15.975407
40960000000,-4.8739471,-23.88381,-53.63493,-24.355045,-16.018373,60.190987,-5.0290127,-25.21278
41020000000,-6.6910205,-50.84557,-53.813717,-61.066952,-15.055158,29.965082,-8.4837132,-93.600372
41080000000,-3.4899502,-46.506069,-54.831314,-88.484901,-15.445753,3.6957138,-5.183228,-122.73522
41140000000,-6.6986318,-41.877491,-56.389885,-114.72177,-15.553263,-21.841578,-9.6516972,-175.11209
41200000000,-3.9658682,-61.257351,-56.40575,-127.68805,-16.314838,-48.481171,-5.4085817,139.11571
41260000000,-4.5962143,-42.150486,-58.910961,-153.97852,-16.639648,-72.215027,-8.4650488,104.03613
41320000000,-5.8422465,-67.722626,-57.818367,-177.76797,-17.058931,-92.026085,-4.77985,58.9496
41380000000,-3.9177339,-53.654408,-57.431774,-168.37502,-17.589722,-112.99557,-5.9677,47.387825
41440000000,-8.9576063,-66.830231,-57.374229,165.81796,-16.828159,-138.30782,-5.2280822,-10.840397
41500000000,-4.148829,-83.768425,-59.16975,162.66525,-16.759521,-157.52094,-3.409548,-20.026146
41560000000,-7.3760042,-68.050484,-57.577782,125.02984,-16.792728,178.84743,-6.9035554,-60.416119
41620000000,-5.8611751,-111.06052,-55.394623,115.16076,-16.282406,149.15967,-3.8135233,-101.45876
41680000000,-4.4290309,-87.731834,-61.479172,118.44507,-16.096771,128.18108,-8.5108433,-125.25449
41740000000,-7.1882486,-112.83044,-56.67347,89.141907,-16.727245,101.75411,-7.1879044,163.71222
41800000000,-3.3017409,-107.30046,-54.519817,61.521214,-16.915701,76.116394,-9.6402016,135.02319
41860000000,-6.705873,-100.12141,-54.042686,31.268921,-17.022985,51.978981,-6.1594419,61.792297
41920000000,-4.2343636,-121.29652,-54.220634,34.923847,-17.582607,32.852806,-5.259171,52.105965
41980000000,-5.0286045,-102.89254,-55.357494,7.239747,-17.90274,9.2291517,-6.0379653,6.0819812
42040000000,-7.5237632,-132.18959,-52.454128,-24.715252,-17.315826,-13.855354,-3.2897027,-14.238704
42100000000,-4.9753165,-124.87585,-52.611942,-43.666138,-17.385538,-32.548779,-5.6241775,-36.907631
42160000000,-8.5856838,-134.17888,-50.234715,-69.263763,-17.24308,-60.262192,-4.9499607,-77.435753
42220000000,-5.7156572,-155.43903,-49.795956,-93.195915,-16.685934,-86.374985,-7.2891984,-99.670677
42280000000,-6.2729959,-155.08369,-49.265095,-127.89196,-16.879265,-112.52837,-9.9015331,-164.82109
42340000000,-5.2923079,-164.9688,-49.933182,-151.25993,-17.439722,-138.36011,-11.204599,142.82475
42400000000,-4.988523,-159.19017,-49.745041,-174.35336,-17.920431,-162.55786,-8.0351143,76.062546
42460000000,-5.160799,-165.79767,-49.636265,167.32442,-18.426975,174.90059,-6.2732286,48.175652
42520000000,-4.6830091,-159.47382,-48.691242,135.77275,-18.719854,155.40228,-5.0748005,13.725474
42580000000,-6.1368351,-167.47266,-49.642921,117.63229,-18.759388,133.24147,-3.9398482,-3.4103768
42640000000,-5.4486089,-169.67841,-48.699604,94.912865,-18.567133,112.39519,-5.1465306,-33.529518
42700000000,-7.4727864,178.60329,-47.434246,70.708855,-18.310307,88.993568,-4.3707399,-57.274929
42760000000,-5.4109282,168.53149,-47.599735,48.842625,-17.824558,63.443428,-9.4151821,-83.761688
42820000000,-8.0521593,166.97234,-47.053528,10.650618,-17.885195,37.300404,-9.1957111,-155.87503
42880000000,-5.0560451,134.89142,-47.366058,-20.24799,-18.310879,6.2575865,-15.427134,151.9747
42940000000,-4.2963953,158.02101,-47.986042,-37.7202,-18.696318,-15.702605,-6.385416,73.203949
43000000000,-6.1667967,136.94414,-48.06955,-59.794456,-19.430899,-38.930935,-6.2225146,60.513351
43060000000,-3.1530118,145.17278,-48.889622,-92.755852,-20.22167,-62.199509,-4.6363111,8.4367819
43120000000,-6.382216,154.80487,-48.906555,-99.222137,-19.991209,-79.581017,-2.7428324,3.0763512
43180000000,-4.2414765,135.02988,-48.573566,-122.99093,-20.046135,-99.192444,-5.8984027,-26.985939
43240000000,-5.4889207,155.36356,-47.487282,-151.46686,-19.799189,-122.54208,-3.5010526,-57.02713
43300000000,-6.7730589,116.31863,-46.312717,-176.78304,-18.922415,-146.60565,-8.4191628,-65.858673
43360000000,-4.5757132,134.33214,-46.793652,155.61124,-18.846087,-172.73692,-8.3871841,-159.35896
43420000000,-10.093638,95.652374,-46.257927,130.00137,-19.053188,157.97653,-12.414575,177.30469
43480000000,-2.9632752,91.70948,-47.037941,95.932884,-20.060553,124.8388,-5.363759,70.755508
43540000000,-6.4746103,117.005,-47.97987,80.954292,-20.3862,109.56634,-4.1389933,74.044044
43600000000,-4.0614395,78.354721,-48.23037,55.0877,-21.776451,84.948006,-5.6831131,18.59749
43660000000,-2.6408324,110.65178,-49.54311,36.539059,-21.796402,62.901165,-1.6437137,5.9960594
43720000000,-7.6936464,93.208412,-47.548992,18.749496,-21.600067,49.052284,-5.0246477,-4.7134156
43780000000,-2.8662417,95.874596,-48.43404,-6.8515539,-21.772472,26.469191,-3.4830441,-50.955315
43840000000,-7.9562373,114.08002,-47.858952,-36.170555,-21.031487,3.5221643,-5.4533005,-53.552853
43900000000,-4.5645404,70.46006,-46.939793,-62.595501,-20.333199,-23.505135,-8.9812469,-150.30357
43960000000,-6.1775765,103.55055,-47.197601,-86.896591,-20.83732,-48.399586,-6.9627018,-161.51939
44020000000,-7.2425742,27.814899,-48.13493,-124.61631,-21.188263,-80.816322,-9.193471,92.93618
44080000000,-2.4219749,61.798302,-48.2528,-143.05859,-22.120153,-105.27902,-3.1253057,83.012611
44140000000,-9.38661,60.777618,-49.924549,-158.60367,-22.935991,-122.85766,-5.9242945,49.22633
44200000000,-2.7816556,37.830612,-51.318695,171.36501,-24.290314,-146.68175,-2.0597622,18.154274
44260000000,-3.9319775,72.731354,-51.731667,162.61601,-23.932526,-163.48318,-3.8556006,13.551253
44320000000,-5.8929167,38.868183,-50.899513,140.67152,-23.846136,179.38222,-4.3556685,-37.012039
44380000000,-3.0352812,60.241844,-50.662487,115.82639,-24.073425,157.30801,-3.4978094,-44.083611
44440000000,-9.5296993,56.582897,-49.731121,92.173645,-22.906021,133.54596,-10.317608,-93.310135
44500000000,-4.4095674,34.846912,-49.270275,60.768871,-22.844818,109.11934,-6.4111843,-145.29643
44560000000,-8.8206644,52.09024,-50.185333,39.689594,-23.20775,80.972145,-12.315063,145.11157
44620000000,-5.8843822,-5.1309786,-50.305367,11.141998,-23.960665,52.491879,-4.3428059,95.959969
44680000000,-4.7960401,25.086243,-51.287895,-6.481555,-24.791702,32.83527,-5.5926309,74.38031
44740000000,-7.1978421,-4.7893929,-51.550529,-36.7365,-25.671398,12.691523,-3.514092,34.179153
44800000000,-2.9740882,5.3963709,-51.785412,-55.178425,-26.362865,-7.2265477,-3.7634964,22.831669
44860000000,-5.591393,18.301231,-51.800705,-73.435928,-26.021637,-25.141363,-4.9882984,-15.808295
44920000000,-4.5040894,3.5503387,-51.815052,-93.511177,-26.063519,-41.961941,-4.0888844,-32.617008
44980000000,-5.22791,18.673744,-50.018463,-124.526,-25.489689,-67.364113,-9.1522751,-71.124931
45040000000,-7.3959498,-4.2246418,-50.562233,-138.91125,-24.676634,-92.042587,-7.4969678,-127.72987
45100000000,-6.1325321,-1.7362492,-50.940804,-172.67685,-24.959749,-119.74363,-12.733135,167.24414
45160000000,-9.4557438,-22.073957,-51.554935,153.24339,-25.633146,-147.13156,-6.1637974,107.36352
45220000000,-5.930563,-36.254642,-51.252575,137.03654,-26.371132,-171.776,-6.777833,75.964455
45280000000,-6.8153725,-35.211189,-52.73761,116.98596,-27.381117,168.89174,-4.1037292,38.309174
45340000000,-5.093749,-45.404598,-52.724354,80.311844,-27.837912,147.91721,-4.5836535,24.249777
45400000000,-5.0320477,-37.05637,-52.807667,65.907318,-28.077536,129.82817,-5.039381,-15.760267
45460000000,-5.0074878,-41.824955,-52.725605,46.206921,-27.941978,110.49644,-4.1830888,-29.663874
45520000000,-5.2406225,-35.372765,-52.926609,22.55971,-27.616947,86.664131,-9.5131187,-71.98761
45580000000,-6.4020596,-44.32795,-53.75288,-5.3948812,-27.228928,60.439423,-7.6594844,-128.15472
45640000000,-6.2684965,-43.026955,-52.913727,-41.641254,-27.632174,33.131092,-12.782687,153.22263
45700000000,-9.4112253,-61.522388,-53.725193,-57.092598,-28.450584,4.1609612,-5.3161883,105.59896
45760000000,-6.3542166,-74.108116,-54.07061,-103.13787,-29.145252,-19.281851,-7.0945745,73.662727
45820000000,-9.1062212,-78.300743,-54.351757,-118.72192,-30.580887,-41.236256,-3.6756549,31.220448
45880000000,-5.1080823,-103.15327,-55.992092,-141.24022,-31.306095,-62.172993,-4.0233703,23.50655
45940000000,-5.434556,-82.920189,-55.122169,-164.4552,-31.651123,-80.409859,-4.8246064,-20.194958
46000000000,-6.4142013,-104.99648,-55.779182,-176.17674,-32.293125,-99.707878,-3.6130483,-36.440941
46060000000,-3.44695,-92.030563,-56.180462,159.17967,-32.433819,-122.78007,-8.2409077,-73.274429
46120000000,-7.1778445,-83.357887,-54.739281,130.72911,-32.312168,-148.98196,-5.7654638,-132.12862
46180000000,-5.1775398,-104.78626,-55.60923,93.366173,-33.204853,-174.71068,-10.355295,172.84946
46240000000,-7.4822145,-84.056297,-54.263393,81.693718,-35.270039,157.48961,-4.6471968,108.04301
46300000000,-9.2048321,-140.64594,-56.239204,54.72113,-36.391445,132.78778,-5.43683,87.283989
46360000000,-6.0500984,-118.22917,-58.911102,26.234983,-38.399593,118.83126,-3.9375429,38.093521
46420000000,-10.365341,-150.71884,-58.345631,-1.7278486,-40.654152,99.217323,-3.1706083,26.880703
46480000000,-3.992564,-148.74248,-58.073433,-14.947437,-42.169289,85.043381,-4.7081881,-11.362907
46540000000,-7.9082236,-133.1104,-56.766132,-32.010509,-44.461357,76.281517,-2.5384209,-33.040539
46600000000,-4.4409451,-168.23143,-55.636032,-61.739738,-45.877075,66.973274,-5.4463735,-54.169628
46660000000,-3.7940767,-136.80679,-56.201283,-80.732315,-47.857548,65.867401,-5.3770881,-115.97458
46720000000,-8.5606298,-154.51256,-53.669239,-106.51961,-47.789028,73.56604,-6.3017449,-148.67206
46780000000,-4.4599481,-152.79688,-54.841248,-149.4433,-45.544403,70.171951,-6.2999473,141.22133
46840000000,-9.5419731,-141.89293,-54.293045,176.15201,-43.999851,63.483788,-5.0520244,103.85127
46900000000,-6.4760828,173.17491,-55.211674,160.55318,-42.435528,45.073357,-4.4551163,59.893555
46960000000,-7.2147751,-164.78517,-54.59409,136.38269,-40.595066,34.543812,-3.117938,38.036343
47020000000,-8.9544916,149.63844,-55.44463,110.57862,-40.260136,17.390646,-4.3180766,9.2343454
47080000000,-4.6452403,165.50159,-54.510445,88.79203,-37.967491,1.5588056,-3.0817673,-16.962805
47140000000,-7.9480629,161.78581,-55.094547,51.869282,-36.895935,-14.376225,-4.2901607,-42.613335
47200000000,-4.3186831,151.43326,-54.077682,27.623623,-34.85091,-33.851509,-4.3856115,-79.525299
47260000000,-5.2859569,165.4892,-55.65192,0.6116122,-33.480877,-57.4314,-6.2330704,-114.53297
47320000000,-5.8889475,151.04776,-54.456131,-21.085817,-32.264435,-79.960518,-6.6963634,-178.70493
47380000000,-5.6029501,159.52074,-54.69886,-57.337429,-31.552395,-105.1375,-6.8576593,135.93413
47440000000,-8.1555157,147.41513,-54.991108,-90.153069,-31.285791,-126.6649,-5.4312329,79.872787
47500000000,-6.658824,140.42911,-56.566132,-113.74833,-30.714233,-148.09108,-4.306325,53.466095
47560000000,-8.7630692,133.15942,-56.19273,-128.26057,-30.349503,-166.42258,-4.21942,14.586675
47620000000,-7.1005158,114.50491,-56.795055,-148.22118,-29.576561,175.76289,-2.6057572,-2.4188814
47680000000,-6.9660068,111.48378,-56.687088,174.82664,-28.632528,155.98793,-5.0793891,-28.268654
47740000000,-5.6352963,103.6071,-56.602043,155.65648,-27.221977,135.39445,-3.6154013,-68.045601
47800000000,-5.7346907,108.53621,-55.278584,140.24625,-25.962267,113.50465,-5.9909444,-83.122795
47860000000,-5.7358589,100.41561,-56.900795,113.01602,-24.692108,89.220955,-8.6685123,-163.99249
47920000000,-5.030643,107.04765,-54.652004,84.356621,-24.246746,61.642471,-8.2347403,161.6416
47980000000,-6.9446135,109.19709,-55.182148,49.058979,-23.097387,36.290482,-7.5278993,70.613075
48040000000,-6.3856821,101.94225,-56.755299,32.826981,-23.202297,15.189706,-4.3807306,57.327621
48100000000,-8.6971436,102.30211,-57.639668,11.697192,-22.748653,-8.4112434,-6.1546926,17.526901
48160000000,-7.9742913,76.079788,-55.991508,-13.703387,-22.14159,-31.283554,-2.6465111,-9.3637238
48220000000,-8.2825642,82.437378,-56.142429,-29.627178,-21.374971,-48.263088,-5.0488501,-18.13508
48280000000,-7.7381444,49.72007,-55.447784,-46.041409,-20.491953,-74.968628,-5.30336,-71.998901
48340000000,-4.8490539,58.045654,-56.370781,-74.755043,-19.764587,-101.19988,-5.7776656,-84.352242
48400000000,-7.2176023,62.304352,-55.055832,-91.52124,-18.517593,-126.14693,-11.648211,-171.24164
48460000000,-5.1745539,51.352642,-54.101437,-122.674,-18.690458,-153.82471,-8.6763573,144.78064
48520000000,-5.9986672,67.06514,-54.970558,-147.69873,-18.785215,177.89528,-7.6552758,60.666439
48580000000,-7.0881619,49.594753,-55.467865,-169.87059,-18.78964,155.67111,-3.2313578,46.16341
48640000000,-5.9882751,60.778637,-54.995995,176.4413,-18.844961,134.74738,-5.3428826,17.688253
48700000000,-10.760377,54.911175,-53.909512,150.85846,-18.795891,114.26964,-3.0528719,-17.334274
48760000000,-7.8839183,34.604534,-53.128891,132.0311,-17.807856,95.865929,-3.6386271,-23.004971
48820000000,-11.270685,34.722569,-51.731468,103.59589,-16.869326,72.715324,-5.9007206,-70.59951
48880000000,-7.3163567,-0.72676349,-51.822937,82.582695,-16.240143,48.433258,-5.2954202,-97.687721
48940000000,-6.4074297,18.574139,-51.371334,50.205837,-15.518398,19.683441,-11.059909,-162.55981
49000000000,-7.978601,-0.84573877,-51.553947,23.134531,-15.380663,-5.9737587,-6.3846965,137.71353
49060000000,-4.766942,5.3907776,-51.399639,-9.1641521,-16.017851,-34.617107,-7.1711702,84.403183
49120000000,-7.532671,17.701309,-52.038006,-33.058113,-16.090645,-56.607323,-3.2176776,45.89196
49180000000,-6.6582608,-0.75143373,-53.202183,-55.642395,-16.828394,-75.833183,-3.5298188,26.11025
49240000000,-7.1356387,17.864128,-51.583641,-73.975426,-16.291185,-96.295639,-2.9333282,-3.293211
49300000000,-12.20969,-8.1502609,-51.78867,-93.342598,-15.996726,-115.26295,-3.3586612,-21.749172
49360000000,-8.8900499,-14.63903,-51.748669,-117.40002,-15.098677,-134.5972,-4.3439784,-51.416595
49420000000,-13.39783,-28.405258,-50.02211,-135.99367,-14.385994,-157.09456,-4.5252051,-83.555115
49480000000,-7.7165852,-55.774948,-50.5009,-166.18907,-13.285999,177.95502,-7.0517545,-126.91566
49540000000,-8.0529308,-42.686848,-49.317081,165.02087,-13.177987,151.8419,-6.8422298,169.78143
49600000000,-6.9091601,-54.726856,-50.305973,139.23534,-13.023936,125.63638,-6.0792055,115.01382
49660000000,-5.616147,-43.88158,-51.264214,109.11393,-13.266122,99.812737,-4.1059065,72.710701
49720000000,-7.9426289,-41.625214,-51.532272,93.914116,-13.717331,80.070724,-3.7959003,41.535347
49780000000,-7.3161035,-51.331249,-51.118477,75.757729,-13.813404,59.864281,-2.7755949,15.303287
49840000000,-8.592761,-41.975483,-51.23465,49.169113,-13.445405,40.035065,-3.1782095,-7.5882053
49900000000,-12.285366,-65.896912,-52.253895,29.335308,-12.747533,21.47468,-3.0733228,-35.000237
49960000000,-10.549582,-86.66198,-51.671757,-1.7967032,-11.846766,-0.55332905,-3.7735043,-56.012222
50020000000,-11.538017,-102.31249,-49.721676,-16.572412,-10.952322,-23.437805,-5.9073329,-97.412743
50080000000,-7.7178707,-123.82428,-49.659443,-47.016537,-10.14944,-50.899143,-5.8902655,-139.42641
50140000000,-6.1670318,-109.14014,-49.752831,-75.032333,-9.7988586,-75.607529,-8.5715685,154.05054
50200000000,-7.445766,-106.42538,-50.020844,-92.234039,-10.074299,-101.4482,-4.7088232,104.07396
50260000000,-5.8751664,-112.71899,-50.787708,-128.14568,-10.116933,-124.834,-5.7835302,65.084206
50320000000,-5.9311385,-96.012314,-50.487564,-144.11652,-10.39993,-144.81958,-2.920687,25.747221
50380000000,-9.631568,-105.89749,-50.681885,-165.42632,-10.246322,-163.6179,-3.3870509,14.495366
50440000000,-7.5763593,-117.52108,-50.004257,175.1891,-9.4816504,174.15108,-4.2103629,-28.799606
50500000000,-11.280488,-115.53921,-50.901237,146.19075,-9.1078625,156.41934,-2.7782879,-42.064713
50560000000,-9.3049297,-165.36198,-50.467697,125.06656,-7.919096,130.23354,-6.7331514,-63.195068
50620000000,-8.1638861,-146.83833,-48.743282,96.130844,-7.0770998,107.77199,-5.9707022,-126.13297
50680000000,-8.5286951,177.66582,-49.30278,68.93808,-6.390769,77.610542,-10.370872,-150.96217
50740000000,-4.8416314,-171.50175,-49.393353,35.927029,-6.5477266,51.138493,-7.0106211,102.85275
50800000000,-6.3865047,-162.36769,-49.337513,6.617672,-6.5054984,27.270218,-6.2684584,88.01432
50860000000,-4.8447719,-170.38887,-50.722488,-14.087947,-7.0029759,5.1798387,-5.9519296,22.155172
50920000000,-4.9574699,-149.81836,-50.703403,-31.369253,-6.6077046,-14.044764,-2.699965,12.708167
50980000000,-7.8753676,-168.16824,-50.879612,-55.796268,-6.1707597,-31.504112,-6.2600584,-11.247622
51040000000,-5.4161487,-162.02783,-50.824173,-76.50322,-5.5636287,-55.551598,-3.8987148,-56.046894
51100000000,-12.872138,-167.78088,-51.052338,-108.94467,-4.4079094,-77.341713,-5.8329177,-59.921661
51160000000,-6.1226859,143.46779,-50.283222,-140.9588,-3.6201253,-107.43055,-10.258257,-134.46571
51220000000,-7.5449195,169.47214,-50.705177,-170.11124,-3.185214,-132.40533,-10.378415,-168.34651
51280000000,-6.7171555,121.06548,-51.359993,163.70772,-3.6625907,-164.7,-9.6359892,76.328232
51340000000,-2.8147287,144.97444,-52.320995,138.40999,-3.8230309,170.16197,-5.5081248,62.267906
51400000000,-6.9440355,149.89644,-53.062634,114.71989,-4.3136821,152.45323,-6.4355907,17.833334
51460000000,-3.2650867,136.60902,-54.459881,91.546486,-4.7527423,130.20055,-3.0182657,-4.6470613
51520000000,-4.265502,165.95029,-53.624622,76.34697,-3.8156869,114.12013,-4.879221,-14.628841
51580000000,-6.9847565,134.22667,-54.62904,63.145176,-3.1055176,95.239014,-5.1548452,-61.50576
51640000000,-3.7678602,149.86961,-53.7841,26.525396,-2.4048193,70.588974,-5.1255736,-77.394867
51700000000,-12.405222,145.92744,-53.609901,6.7380795,-0.98725915,44.310215,-10.986667,-137.03947
51760000000,-4.9760833,105.73649,-54.341488,-31.749281,-0.94646782,14.615656,-8.3664265,163.01639
51820000000,-7.8903298,131.20125,-58.490513,-48.126022,-1.1501682,-13.032223,-9.5336189,85.89151
51880000000,-5.7466574,71.364899,-58.694389,-69.089371,-2.2860956,-41.528915,-3.9880497,52.495953
51940000000,-2.6358421,104.59809,-59.084118,-94.49279,-2.533443,-60.983849,-4.6528449,31.44516
52000000000,-7.5459533,95.804634,-58.794552,-125.3819,-3.017199,-76.580917,-3.2713273,-2.7228494
