!CSV A.01.01
!Keysight Technologies,N5247B,MY58422921,A.14.80.08
!Date: Wednesday, April 12, 2023 05:33:25
!Source: Standard

BEGIN CH1_DATA
Freq(Hz),S11(DB),S11(DEG),S12(DB),S12(DEG),S21(DB),S21(DEG),S22(DB),S22(DEG)
40000000000,-4.537107,67.595673,-56.631279,-25.391964,-15.844069,101.85689,-12.061918,-110.13244
40060000000,-4.5056586,63.220238,-64.982758,-91.838837,-15.735919,72.735809,-8.3030281,172.05318
40120000000,-4.585721,58.447468,-59.89436,-106.83365,-16.26664,45.795879,-5.0991035,127.61842
40180000000,-4.5213079,53.698959,-58.814602,10.313423,-17.060301,21.62451,-3.7478051,96.745956
40240000000,-4.609334,49.374802,-57.011276,-68.393295,-17.665346,1.0066563,-3.5432422,72.386879
40300000000,-4.6067634,44.308735,-54.38496,-90.209953,-17.878775,-17.871548,-3.9102666,49.955769
40360000000,-4.6039491,40.345032,-57.741428,-102.77444,-17.6658,-35.938335,-4.8283081,26.888895
40420000000,-4.6848221,35.694206,-52.837788,-118.48417,-16.976065,-56.356323,-6.4278116,-2.3134372
40480000000,-4.6380835,30.93722,-52.042183,-122.89561,-16.05883,-80.28109,-8.7717667,-45.114464
40540000000,-4.7291565,27.006845,-51.472149,162.59317,-15.373325,-107.88985,-10.273774,-112.37366
40600000000,-4.7975535,21.9224,-49.756817,156.25499,-15.318864,-137.17418,-7.9619527,-178.74168
40660000000,-4.7735105,17.348381,-50.949001,106.86188,-15.794446,-164.71323,-5.7925019,136.78856
40720000000,-4.8420744,12.350828,-54.603397,113.14637,-16.419943,170.73106,-4.6795106,104.52119
40780000000,-4.8211713,7.8269753,-51.533939,40.552269,-16.926998,148.95433,-4.3574247,78.457642
40840000000,-4.8642168,3.2484448,-55.141716,-31.046297,-17.068876,128.71184,-4.45015,54.205814
40900000000,-4.8885412,-1.612878,-52.271709,14.014505,-16.879911,108.06812,-4.9724183,29.292175
40960000000,-4.8790722,-6.0332165,-54.242634,4.0803618,-16.368881,86.064674,-5.9436917,-0.89517653
41020000000,-4.9350414,-10.55884,-59.098232,-30.567747,-15.854805,61.100552,-7.2678199,-40.176762
41080000000,-4.9635963,-15.290791,-53.588795,-45.327991,-15.439289,33.586784,-8.5160236,-93.424118
41140000000,-4.9989247,-20.012669,-50.945843,-85.673721,-15.562711,4.9163561,-8.0747852,-153.09424
41200000000,-5.036737,-24.928728,-52.93277,-143.7924,-16.089527,-22.15897,-6.7243671,158.5858
41260000000,-5.0311389,-29.636505,-57.775169,-165.52274,-16.914915,-46.322926,-5.5990005,121.71653
41320000000,-5.0972314,-34.815437,-60.267319,156.19603,-17.434097,-67.555328,-4.9694562,92.591217
41380000000,-5.1024547,-39.798149,-64.573151,143.737,-17.789503,-87.687027,-4.7437601,65.934059
41440000000,-5.0815649,-44.814259,-64.696182,-111.71843,-17.806717,-107.4985,-4.7391248,39.633476
41500000000,-5.1100683,-49.663105,-55.725739,176.09657,-17.472385,-128.87523,-5.0706954,10.78647
41560000000,-5.096559,-54.413322,-54.114723,-147.09698,-16.9174,-151.80756,-5.7446542,-22.802181
41620000000,-5.1636829,-59.412846,-54.18,168.27524,-16.400883,-177.05653,-6.8312697,-64.28968
41680000000,-5.1537342,-64.396378,-55.441826,138.60347,-16.30637,155.65297,-7.8386765,-115.71319
41740000000,-5.2041502,-69.22142,-52.121456,111.36061,-16.575336,128.95575,-7.9134607,-169.13196
41800000000,-5.2489228,-74.727287,-49.734863,113.16605,-17.082624,103.75864,-6.9947,144.7459
41860000000,-5.2181325,-79.567856,-65.99662,80.704857,-17.620377,81.333672,-6.112793,108.04931
41920000000,-5.3344698,-84.86956,-49.309841,77.533073,-17.871128,59.874485,-5.3886414,77.496399
41980000000,-5.299727,-90.376808,-50.953053,29.988188,-17.945055,38.848759,-5.0087018,49.400646
42040000000,-5.3711333,-95.253456,-53.569595,-21.535946,-17.805996,17.606764,-4.9393024,21.040834
42100000000,-5.3298249,-100.92051,-49.685886,-15.375683,-17.413828,-5.4588246,-5.2753997,-8.8044939
42160000000,-5.3196011,-105.15111,-47.579029,-48.972874,-17.247444,-29.202065,-6.2513041,-43.421082
42220000000,-5.384737,-110.45919,-44.507214,-75.886253,-16.873367,-55.738174,-7.7497001,-86.41433
42280000000,-5.3690677,-115.17218,-47.587296,-81.609123,-16.937586,-82.40786,-9.1963396,-139.03317
42340000000,-5.4487419,-119.93877,-50.538395,-122.50509,-17.374512,-107.88525,-9.0027332,164.73816
42400000000,-5.4789701,-125.48099,-50.779675,-158.37546,-17.809546,-132.81061,-7.6351266,118.81199
42460000000,-5.5486107,-130.23863,-50.19891,-155.54135,-18.31015,-155.38281,-6.2486644,82.09243
42520000000,-5.6009278,-136.33595,-48.471779,161.62711,-18.545143,-177.26936,-5.294982,52.387955
42580000000,-5.4873905,-141.43549,-47.040142,152.00478,-18.632376,161.59096,-4.9715581,24.68195
42640000000,-5.5436974,-146.05037,-48.211548,113.26839,-18.464863,139.80684,-5.0451012,-3.4307365
42700000000,-5.5666137,-151.37221,-46.780556,95.736427,-18.161556,116.98646,-5.8733187,-33.820084
42760000000,-5.5790062,-156.25313,-45.258625,73.846077,-18.151062,92.427109,-7.5189805,-71.348907
42820000000,-5.5585132,-161.62976,-44.191925,48.324543,-17.960938,67.053833,-9.7814312,-120.96893
42880000000,-5.508328,-165.93433,-49.651173,27.089685,-18.022799,40.977577,-10.333873,173.6476
42940000000,-5.6570373,-171.16383,-46.906017,-17.055981,-18.482197,15.34123,-8.2261686,119.77036
43000000000,-5.5933414,-176.42506,-51.234291,-38.503586,-19.005285,-8.2517509,-6.1723719,81.227257
43060000000,-5.6221504,178.92999,-48.200066,-66.241386,-19.390734,-30.136621,-4.8591704,51.504997
43120000000,-5.6613665,173.25493,-48.069294,-79.528038,-19.754738,-52.141037,-4.3522344,25.208126
43180000000,-5.6107235,168.02132,-48.291313,-101.24509,-19.705341,-73.158775,-4.3543329,-0.48480898
43240000000,-5.6254573,162.91223,-46.585678,-110.41578,-19.60565,-95.110878,-5.1025367,-28.056976
43300000000,-5.6143909,158.45174,-47.78582,-121.45628,-19.275694,-118.89036,-6.6361747,-62.393936
43360000000,-5.6991887,153.42215,-47.505051,-163.32065,-19.084196,-144.41682,-8.8887968,-108.52699
43420000000,-5.6216593,148.38507,-45.910885,153.34103,-19.135885,-170.46802,-9.9075089,-173.80119
43480000000,-5.6043067,144.26378,-49.906628,121.89838,-19.520264,162.62589,-7.6945205,128.52118
43540000000,-5.6880074,138.3179,-49.688038,112.67822,-20.167143,138.46609,-5.4955158,88.311104
43600000000,-5.6757607,134.494,-49.848831,66.938507,-20.708717,116.10375,-4.1092768,58.653191
43660000000,-5.7739487,129.01518,-47.731976,75.895973,-21.23745,94.452477,-3.534405,33.897049
43720000000,-5.7149658,123.46976,-45.53109,34.157791,-21.479265,74.469276,-3.4953272,9.9885159
43780000000,-5.7141147,119.19749,-49.213417,15.434219,-21.34104,53.630764,-4.0421333,-14.954614
43840000000,-5.6980877,113.89826,-47.799229,-10.063851,-21.183464,30.885542,-5.2811193,-44.578159
43900000000,-5.6596646,109.50327,-47.891308,-8.3013391,-20.892864,6.8672547,-7.324069,-84.024826
43960000000,-5.7425714,104.86792,-51.964268,-64.029495,-20.895985,-19.480337,-9.2375383,-143.64214
44020000000,-5.6828656,100.51422,-46.143055,-73.177803,-21.118309,-45.920216,-7.8432131,151.99753
44080000000,-5.8059473,96.293823,-47.203678,-122.12344,-21.910343,-71.91404,-5.5172739,106.8143
44140000000,-5.7875113,90.222458,-52.032589,-133.27475,-22.647287,-95.190842,-3.9491057,74.925156
44200000000,-5.6809769,86.738945,-46.541508,-154.44975,-23.403368,-115.67484,-3.2512491,49.451351
44260000000,-5.848877,81.878876,-51.236389,158.05756,-23.807909,-134.33649,-3.0722237,26.325781
44320000000,-5.7351713,76.230881,-51.835598,174.40799,-23.830059,-153.39174,-3.3955998,3.8303275
44380000000,-5.7235436,72.294205,-46.895664,129.36671,-23.821671,-173.95782,-4.3965483,-22.249699
44440000000,-5.743197,66.958435,-51.194469,118.79703,-23.227539,163.69987,-6.2248197,-55.670998
44500000000,-5.6770654,62.465946,-48.134811,98.741966,-23.095758,137.78221,-8.9356594,-106.56307
44560000000,-5.736433,58.002296,-47.982616,74.377777,-23.292702,110.93098,-9.2768421,-177.48676
44620000000,-5.6915479,52.963024,-47.004669,44.344749,-23.905453,84.530464,-6.7172985,126.97984
44680000000,-5.6750402,48.897652,-49.635307,27.700989,-24.913582,62.606613,-4.6792178,90.794983
44740000000,-5.7324109,43.967545,-47.977592,-4.1163249,-25.550705,41.026062,-3.6787906,64.161911
44800000000,-5.6727781,38.808575,-49.556667,-15.513231,-25.892025,20.790226,-3.3393717,41.343353
44860000000,-5.6910877,34.546993,-51.460091,-33.093231,-26.377033,4.3202996,-3.5624871,19.704674
44920000000,-5.708437,29.150663,-52.318882,-69.473778,-25.860733,-14.292031,-4.4389753,-4.7259769
44980000000,-5.6749215,24.082987,-49.795025,-76.312805,-25.346964,-37.562862,-6.2247348,-35.388519
45040000000,-5.6916795,19.270355,-50.700539,-106.64784,-25.080677,-62.418961,-9.586318,-82.75811
45100000000,-5.6609244,14.376468,-48.764019,-141.18256,-25.068996,-90.628723,-11.226078,-162.64093
45160000000,-5.6914539,10.076828,-50.481712,-145.24628,-25.587786,-117.82085,-7.9114165,133.0067
45220000000,-5.7406406,4.8679953,-49.306187,167.46474,-26.625425,-141.28281,-5.4050508,95.431412
45280000000,-5.694819,0.047196399,-52.979733,124.24964,-27.515642,-162.38086,-4.2492871,68.336937
45340000000,-5.736608,-4.8224416,-52.204647,109.19439,-27.911762,178.14339,-3.8087134,45.193451
45400000000,-5.7455535,-9.6608677,-53.671452,83.335144,-27.879709,159.88826,-4.0232654,23.236153
45460000000,-5.7386298,-14.727891,-51.719666,56.033634,-28.11277,138.52458,-4.9295526,-2.1126182
45520000000,-5.7178502,-19.690989,-54.031418,44.229935,-27.476391,116.17731,-6.7812991,-34.616531
45580000000,-5.6977224,-24.085726,-51.231068,24.476582,-27.231543,89.345459,-10.227402,-87.484894
45640000000,-5.8003163,-29.842152,-54.019554,21.146776,-27.826614,62.251163,-10.632758,-170.56717
45700000000,-5.7499833,-34.58852,-55.493862,-45.41563,-28.469336,33.70731,-7.229979,129.62309
45760000000,-5.8295445,-39.279747,-52.960007,-40.82531,-30.008009,9.6178093,-4.8985224,93.638924
45820000000,-5.7976284,-44.417866,-56.79327,-54.777477,-30.921461,-11.759617,-3.9330387,67.344543
45880000000,-5.8339982,-48.936466,-52.0187,-72.826347,-31.723608,-30.311905,-3.6030743,43.974968
45940000000,-5.9107385,-54.180984,-58.821861,-138.01883,-31.959921,-50.28698,-3.7604151,21.505932
46000000000,-5.848721,-58.840809,-56.678871,-137.96573,-32.006451,-69.111977,-4.5810752,-4.8218622
46060000000,-5.9652343,-64.064583,-55.909458,173.55872,-31.851143,-89.219398,-6.0305142,-40.20771
46120000000,-5.9100614,-69.459641,-55.921429,157.46663,-32.13055,-117.9462,-8.2448177,-91.790527
46180000000,-5.9630609,-74.061913,-58.755001,121.99757,-33.09795,-146.36397,-8.3291349,-162.38673
46240000000,-6.0250015,-80.156281,-50.646965,110.08759,-34.990211,-173.45245,-6.0886922,141.74469
46300000000,-5.9267378,-84.738335,-53.060978,73.947929,-36.791267,163.30125,-4.3190875,103.288
46360000000,-6.0437918,-89.485909,-58.996178,48.213276,-38.557785,148.06549,-3.4040668,75.542755
46420000000,-6.0208578,-94.536644,-64.364998,76.089317,-39.790775,130.69684,-3.0989077,51.581818
46480000000,-6.0935364,-99.131226,-64.775848,28.250074,-42.92939,116.67609,-3.1392684,28.846935
46540000000,-6.1020856,-104.73545,-58.560268,45.752956,-42.398937,96.70031,-3.6250467,4.1216741
46600000000,-6.0447459,-109.25555,-53.028664,-42.501572,-44.603909,96.007042,-4.5874543,-27.227329
46660000000,-6.1645985,-114.63837,-55.031559,-67.807137,-46.91814,91.383575,-5.974833,-68.303467
46720000000,-6.164865,-119.83596,-58.044037,-118.92746,-47.58952,96.840446,-7.2113547,-126.18349
46780000000,-6.2797484,-125.05032,-55.726448,-125.30253,-46.614552,94.837845,-6.2409439,173.62061
46840000000,-6.2866755,-130.86107,-57.494125,-141.80814,-46.656387,91.125641,-4.6990204,127.85696
46900000000,-6.2539625,-135.66255,-53.401604,-172.31421,-44.316742,70.19339,-3.5968637,94.540611
46960000000,-6.3467078,-140.8584,-59.28751,-131.82544,-41.65546,66.935608,-3.052264,68.107567
47020000000,-6.3357849,-145.64682,-55.363483,134.97957,-39.529881,56.491859,-2.9262025,44.137463
47080000000,-6.4408088,-150.61911,-56.765469,147.61749,-39.299053,35.904987,-3.1240599,20.073841
47140000000,-6.4653316,-155.83025,-56.759617,120.9245,-36.831833,21.970266,-3.733078,-6.9488754
47200000000,-6.5720334,-160.80373,-51.814808,71.969612,-35.270519,-2.6546595,-4.8774285,-40.782185
47260000000,-6.67594,-166.33214,-54.783901,41.849648,-34.083973,-24.821388,-6.4593143,-86.608231
47320000000,-6.6935778,-171.97365,-52.052017,27.41967,-32.461914,-47.777657,-7.3247747,-146.01373
47380000000,-6.7888479,-177.39125,-54.501202,-24.497835,-31.921883,-75.039696,-6.2632756,157.03421
47440000000,-6.7978849,177.38512,-54.108513,-34.578358,-31.612604,-94.657738,-4.8103871,115.08176
47500000000,-6.8781085,171.5656,-54.854267,-80.336182,-31.118973,-115.4829,-3.8643739,83.260994
47560000000,-6.7916393,166.43681,-59.242767,-89.259254,-30.68144,-131.46021,-3.402813,56.67783
47620000000,-6.9113779,162.13742,-56.257191,-118.71567,-30.065454,-149.01537,-3.3854885,31.821753
47680000000,-7.045464,156.6713,-57.402691,-160.63463,-28.507051,-167.64742,-3.7454491,6.2717247
47740000000,-7.002471,151.65892,-58.532997,-170.73384,-27.158865,171.0472,-4.7823567,-23.429363
47800000000,-7.1442623,146.85696,-53.685093,169.0135,-25.618155,147.42291,-6.5643187,-63.237518
47860000000,-7.2299128,140.91104,-53.143944,169.31519,-24.392357,121.61932,-8.6872263,-118.97366
47920000000,-7.306633,135.82707,-51.234127,116.98577,-23.75528,94.487778,-8.4661961,173.59834
47980000000,-7.407136,130.22784,-52.715698,88.395432,-23.264456,68.709808,-6.5191164,122.9373
48040000000,-7.3584275,124.71751,-52.398315,49.922096,-23.334414,44.996674,-5.0054612,86.478416
48100000000,-7.4374928,119.80103,-56.623337,44.047131,-22.94367,23.729654,-4.1779613,58.215828
48160000000,-7.4089036,114.32133,-52.654373,35.246536,-22.35601,3.748457,-4.016789,32.333004
48220000000,-7.3872375,109.72214,-52.687302,9.7620392,-21.648237,-17.318703,-4.2772279,5.6684575
48280000000,-7.54845,105.09394,-54.30212,3.8989918,-20.439505,-40.044247,-5.370471,-24.586287
48340000000,-7.5778379,99.618744,-55.515324,-40.856396,-19.355701,-65.78476,-7.3686237,-64.855675
48400000000,-7.6107221,94.899178,-54.005833,-69.592773,-18.532276,-93.209824,-9.7146454,-124.43073
48460000000,-7.7187238,89.193893,-57.562481,-99.858612,-18.256178,-121.51302,-8.9739923,164.18092
48520000000,-7.7182732,83.733147,-50.128155,-120.48662,-18.386843,-147.92149,-6.4721489,113.45908
48580000000,-7.7225347,78.226204,-56.153801,-146.10434,-18.568052,-171.61926,-4.7379498,78.224686
48640000000,-7.7100096,72.352364,-55.136002,-156.21375,-18.693319,166.99924,-3.8571997,50.766289
48700000000,-7.667531,67.284889,-53.556583,-147.50385,-18.459291,146.50739,-3.6086988,25.594807
48760000000,-7.6540914,61.820576,-54.135605,156.99149,-17.860851,126.37771,-3.8543544,-0.30960411
48820000000,-7.59904,57.132275,-50.111732,134.3754,-17.078373,104.67003,-4.6873093,-29.887215
48880000000,-7.6855817,52.115601,-49.754139,112.98872,-16.224848,80.178268,-6.2693324,-69.03466
48940000000,-7.7170167,46.898457,-50.998764,88.53614,-15.487986,53.580254,-8.0664482,-124.07252
49000000000,-7.7689953,41.64817,-49.473259,43.914886,-15.347996,25.265728,-7.6510596,169.13135
49060000000,-7.7904711,35.533424,-47.052872,16.056515,-15.635744,-0.83325052,-5.523828,118.87126
49120000000,-7.7572608,29.947409,-51.721634,13.32634,-16.065107,-24.347095,-4.0323071,83.031189
49180000000,-7.7623949,24.242048,-50.37627,-21.710161,-16.342144,-44.822906,-3.1413264,55.413967
49240000000,-7.7086058,18.736071,-52.056274,-39.451977,-16.349358,-63.655029,-2.8441842,31.552176
49300000000,-7.7063398,13.448112,-49.664978,-70.927704,-16.004059,-83.401894,-2.9124992,7.6444674
49360000000,-7.5773535,7.7746387,-53.699322,-72.277672,-15.300806,-102.56091,-3.3972545,-17.636772
49420000000,-7.53056,3.5753105,-52.811073,-122.30962,-14.412919,-123.7832,-4.5541415,-49.565319
49480000000,-7.6473136,-2.091743,-50.403366,-124.22395,-13.476497,-148.70056,-6.1952639,-93.142357
49540000000,-7.5805779,-7.3475494,-50.18404,-129.19487,-12.907041,-176.26358,-7.328084,-154.28198
49600000000,-7.6906462,-12.334388,-51.406319,172.74297,-12.978555,156.38489,-5.9179406,146.17293
49660000000,-7.6336799,-18.804462,-51.097343,140.77779,-13.326596,131.93958,-4.2392964,104.16861
49720000000,-7.578011,-23.942327,-51.628548,139.8125,-13.75367,110.50115,-3.1409645,73.051826
49780000000,-7.581666,-30.089756,-52.594688,100.37856,-13.908831,91.689499,-2.6362357,48.431232
49840000000,-7.4060369,-35.603741,-49.212029,95.458611,-13.69803,73.296944,-2.5242891,25.697174
49900000000,-7.3849969,-40.319405,-51.982746,54.70697,-13.140776,54.885517,-2.7767909,3.0214245
49960000000,-7.2874503,-45.72197,-51.642555,51.553051,-12.25515,35.385509,-3.5923378,-23.044712
50020000000,-7.2668743,-50.144032,-52.579163,-3.4223714,-11.192734,12.888561,-4.9454741,-57.533909
50080000000,-7.3732758,-55.574986,-50.479958,-10.463964,-10.244932,-12.871347,-6.9441047,-105.58047
50140000000,-7.2882414,-61.2822,-49.558922,-24.92705,-9.7399788,-40.884457,-7.568574,-171.45042
50200000000,-7.2760601,-66.140442,-48.98027,-58.109856,-9.82236,-67.563568,-5.7818356,132.69807
50260000000,-7.2494168,-71.882187,-51.357998,-105.16919,-10.192675,-91.498619,-4.1473923,93.984451
50320000000,-7.1866684,-77.388237,-51.920254,-100.88988,-10.45729,-112.13847,-3.2396669,66.336388
50380000000,-7.0997491,-82.770805,-51.260929,-132.32864,-10.351158,-131.16663,-2.9691095,42.583458
50440000000,-7.0267377,-88.072968,-53.251297,-125.56453,-9.9258862,-149.73509,-3.0798495,19.806887
50500000000,-6.9531803,-93.260452,-51.318157,-172.80698,-9.109724,-168.84747,-3.6534431,-3.8845663
50560000000,-6.8609805,-97.659065,-48.284927,152.6825,-8.0349245,169.27144,-5.0647097,-33.665314
50620000000,-6.9394007,-103.06756,-47.36858,146.20505,-6.9639297,144.01381,-7.4946575,-75.720291
50680000000,-6.7872806,-107.72065,-48.801689,108.10951,-6.2557645,116.52117,-9.9426575,-142.20467
50740000000,-6.767704,-112.56326,-51.103664,88.767929,-6.1339893,88.519905,-8.2141161,147.83348
50800000000,-6.7700877,-118.44795,-47.757912,45.069134,-6.3943267,63.13036,-5.8326039,102.61505
50860000000,-6.6485438,-123.11269,-49.717213,4.2107263,-6.6267629,40.743305,-4.4276209,71.716583
50920000000,-6.6889563,-128.44133,-49.091412,-13.939927,-6.619689,20.726549,-3.9224524,46.814976
50980000000,-6.5924888,-134.20711,-50.617233,-19.576466,-6.2232199,1.3651514,-4.0292163,23.828293
51040000000,-6.5350294,-138.96809,-50.862453,-64.186722,-5.423861,-19.206564,-4.8082581,-0.92978758
51100000000,-6.4311137,-144.38194,-49.275028,-64.394699,-4.4333625,-42.284271,-6.6877627,-32.388699
51160000000,-6.3650403,-148.21638,-47.449005,-99.741089,-3.564075,-68.523811,-10.217773,-80.574219
51220000000,-6.4951353,-153.52206,-47.697166,-125.8875,-3.089761,-97.046768,-12.216814,-164.84103
51280000000,-6.257925,-158.89369,-53.638092,-152.68869,-3.1973891,-124.7953,-8.4055138,128.20636
51340000000,-6.2774343,-162.88869,-51.85326,151.72989,-3.5657499,-149.36824,-5.7370949,90.347336
51400000000,-6.3143177,-168.23946,-50.21772,137.30826,-3.9013128,-171.15318,-4.4984727,62.756084
51460000000,-6.1851559,-173.1835,-50.982632,125.77285,-3.8765845,169.22459,-4.0207186,39.422386
51520000000,-6.321372,-178.22701,-53.907692,139.19551,-3.4822333,149.63841,-4.2509289,15.817344
51580000000,-6.2183032,175.84229,-54.568447,118.84423,-2.7772398,128.69705,-5.0595627,-10.847141
51640000000,-6.1561708,171.18668,-52.563385,47.871597,-1.8204954,105.41351,-6.8507352,-45.654926
51700000000,-6.1532822,166.02325,-52.222595,24.485384,-1.0333699,78.616951,-9.5747433,-100.69682
51760000000,-6.0036621,161.55923,-53.259945,11.09388,-0.73265523,49.985924,-9.3905582,-175.62117
51820000000,-6.1011529,156.63585,-57.519707,-58.549168,-1.0459708,22.819395,-6.586194,128.93698
51880000000,-5.9728441,151.80759,-65.717583,6.1315422,-1.53808,-0.79415071,-4.6695461,93.307007
51940000000,-6.077889,147.77194,-52.689342,-73.64151,-1.9492199,-21.837877,-3.7446201,65.84346
52000000000,-6.1668315,142.06337,-61.342991,-40.100887,-1.9901634,-40.58794,-3.3468058,42.936581
